! Anritsu VNA Master:                           Model: MS2025B
! SN:                                  1642059
! /bd0/PROE/TP1/CoaxSC.s2p
! Existing Calibration Information:
! TYPE:                         Current Settings,       Active Cal Settings
! TIME:             	   04/16/2024 09:35:40 AM,    03/12/2018 11:45:53 AM
! INTERNAL TEMP:    	                   43.5 C,                    40.8 C
! # POINTS:         	                     2857,                      4001
! START FREQ:       	                1.000 MHz,                 1.000 MHz
! STOP FREQ:        	            1.999 486 GHz,                 2.800 GHz
! SOURCE POWER:     	                  Default,                   Default
! IFBW:             	                    1 kHz,                     1 kHz
! AVG FACTOR:       	                       1 ,                        1 
! REF PLANE 1:      	                     0 mm,                      0 mm
! REF PLANE 2:      	                     0 mm,                      0 mm
! CAL TYPE:         	             1P2P S11,S21,              1P2P S11,S21
! CAL METHOD:       	                     SOLT,                      SOLT
! CAL LINE TYPE:    	                     Coax,                      Coax
! DUT PORT 1:       	                         ,                          
! DUT PORT 2:       	                N-Conn(M),                 N-Conn(M)
! CAL STATUS:       	        OK: Accuracy High,                        --
# GHZ S MA R 50.0
! FREQ.GHZ       S11M         S11A         S21M         S21A         S12M         S12A         S22M         S22A
  0.001000000  9.821684E-01  177.901901  6.786638E-05  -61.046585  1.000000E+00    0.000000  1.000000E+00    0.000000
  0.001699750  9.814563E-01  176.257172  5.696950E-05  -63.881538  1.000000E+00    0.000000  1.000000E+00    0.000000
  0.002399500  9.786867E-01  174.523224  3.875104E-05  -99.986580  1.000000E+00    0.000000  1.000000E+00    0.000000
  0.003099250  9.764810E-01  172.865784  6.021148E-05  -69.722839  1.000000E+00    0.000000  1.000000E+00    0.000000
  0.003799000  9.779743E-01  171.246078  4.556952E-05  -56.691887  1.000000E+00    0.000000  1.000000E+00    0.000000
  0.004498750  9.735094E-01  169.662109  5.310081E-05  -43.291386  1.000000E+00    0.000000  1.000000E+00    0.000000
  0.005198500  9.718393E-01  168.113571  5.107476E-05  -68.212715  1.000000E+00    0.000000  1.000000E+00    0.000000
  0.005898250  9.733760E-01  166.519806  3.168815E-05   -5.212512  1.000000E+00    0.000000  1.000000E+00    0.000000
  0.006598000  9.716844E-01  164.952225  3.615513E-05  -35.469849  1.000000E+00    0.000000  1.000000E+00    0.000000
  0.007297750  9.705800E-01  163.346603  1.243669E-04  -44.874222  1.000000E+00    0.000000  1.000000E+00    0.000000
  0.007997500  9.693213E-01  161.819092  7.355458E-05  -50.905716  1.000000E+00    0.000000  1.000000E+00    0.000000
  0.008697250  9.699606E-01  160.281174  7.906184E-05  -35.298416  1.000000E+00    0.000000  1.000000E+00    0.000000
  0.009397000  9.710471E-01  158.661682  9.187908E-05    0.165424  1.000000E+00    0.000000  1.000000E+00    0.000000
  0.010096750  9.709725E-01  157.077301  8.685750E-05  -31.640352  1.000000E+00    0.000000  1.000000E+00    0.000000
  0.010796500  9.713527E-01  155.527695  5.980107E-05  -70.868546  1.000000E+00    0.000000  1.000000E+00    0.000000
  0.011496250  9.712652E-01  154.032135  4.368928E-05  -20.124237  1.000000E+00    0.000000  1.000000E+00    0.000000
  0.012196000  9.708609E-01  152.416382  5.813884E-05  -26.668137  1.000000E+00    0.000000  1.000000E+00    0.000000
  0.012895750  9.715084E-01  150.905319  6.397141E-05  -16.013222  1.000000E+00    0.000000  1.000000E+00    0.000000
  0.013595500  9.713755E-01  149.341690  6.792544E-05    2.611559  1.000000E+00    0.000000  1.000000E+00    0.000000
  0.014295250  9.704416E-01  147.738876  4.542330E-05   48.966175  1.000000E+00    0.000000  1.000000E+00    0.000000
  0.014995000  9.706969E-01  146.208054  2.787897E-05  -47.963123  1.000000E+00    0.000000  1.000000E+00    0.000000
  0.015694750  9.707175E-01  144.702133  7.585066E-05   -2.413218  1.000000E+00    0.000000  1.000000E+00    0.000000
  0.016394500  9.698898E-01  143.139771  3.227213E-05    9.872846  1.000000E+00    0.000000  1.000000E+00    0.000000
  0.017094250  9.696784E-01  141.618210  5.140718E-05   -8.604327  1.000000E+00    0.000000  1.000000E+00    0.000000
  0.017794000  9.699615E-01  140.094864  1.493975E-05   -9.206469  1.000000E+00    0.000000  1.000000E+00    0.000000
  0.018493750  9.694517E-01  138.634644  3.379282E-05  -59.320480  1.000000E+00    0.000000  1.000000E+00    0.000000
  0.019193500  9.691594E-01  136.992081  3.713499E-05    9.808270  1.000000E+00    0.000000  1.000000E+00    0.000000
  0.019893250  9.688751E-01  135.465714  5.356764E-05   -6.382718  1.000000E+00    0.000000  1.000000E+00    0.000000
  0.020593000  9.686448E-01  133.921585  3.193051E-05  -44.016232  1.000000E+00    0.000000  1.000000E+00    0.000000
  0.021292750  9.678260E-01  132.369110  1.585511E-05  -50.312370  1.000000E+00    0.000000  1.000000E+00    0.000000
  0.021992500  9.676800E-01  130.854065  4.143499E-05   10.870376  1.000000E+00    0.000000  1.000000E+00    0.000000
  0.022692250  9.666978E-01  129.282928  4.249601E-05    7.893066  1.000000E+00    0.000000  1.000000E+00    0.000000
  0.023392000  9.661759E-01  127.777031  3.332651E-05  -17.707830  1.000000E+00    0.000000  1.000000E+00    0.000000
  0.024091750  9.659619E-01  126.250175  1.810553E-05  -15.550143  1.000000E+00    0.000000  1.000000E+00    0.000000
  0.024791500  9.652333E-01  124.706963  3.052970E-05   30.090303  1.000000E+00    0.000000  1.000000E+00    0.000000
  0.025491250  9.708537E-01  123.310814  1.725258E-05   77.241386  1.000000E+00    0.000000  1.000000E+00    0.000000
  0.026191000  9.704798E-01  121.721336  4.044035E-05  -10.815439  1.000000E+00    0.000000  1.000000E+00    0.000000
  0.026890750  9.697202E-01  120.154709  4.127041E-05  -17.722927  1.000000E+00    0.000000  1.000000E+00    0.000000
  0.027590500  9.685918E-01  118.600266  4.779674E-05   30.645102  1.000000E+00    0.000000  1.000000E+00    0.000000
  0.028290250  9.674362E-01  117.048607  3.673002E-05   33.872208  1.000000E+00    0.000000  1.000000E+00    0.000000
  0.028990000  9.668423E-01  115.465508  4.799813E-05   62.744884  1.000000E+00    0.000000  1.000000E+00    0.000000
  0.029689750  9.656851E-01  113.875587  2.346197E-05   22.487429  1.000000E+00    0.000000  1.000000E+00    0.000000
  0.030389500  9.640820E-01  112.335213  5.295241E-05   51.354065  1.000000E+00    0.000000  1.000000E+00    0.000000
  0.031089250  9.633553E-01  110.799538  2.052678E-05   65.531799  1.000000E+00    0.000000  1.000000E+00    0.000000
  0.031789000  9.626759E-01  109.276657  5.244973E-05   41.199593  1.000000E+00    0.000000  1.000000E+00    0.000000
  0.032488750  9.620424E-01  107.700142  1.654645E-05  -24.865114  1.000000E+00    0.000000  1.000000E+00    0.000000
  0.033188500  9.610183E-01  106.108467  1.050362E-05   46.838718  1.000000E+00    0.000000  1.000000E+00    0.000000
  0.033888250  9.603760E-01  104.552757  4.025143E-05   77.429710  1.000000E+00    0.000000  1.000000E+00    0.000000
  0.034588000  9.598468E-01  103.013260  3.455770E-05   43.939651  1.000000E+00    0.000000  1.000000E+00    0.000000
  0.035287750  9.590133E-01  101.428406  5.893632E-05  103.794212  1.000000E+00    0.000000  1.000000E+00    0.000000
  0.035987500  9.582068E-01   99.913010  2.678414E-05   74.372360  1.000000E+00    0.000000  1.000000E+00    0.000000
  0.036687250  9.589636E-01   98.345085  2.623741E-05   77.433792  1.000000E+00    0.000000  1.000000E+00    0.000000
  0.037387000  9.582193E-01   96.766457  4.892459E-05   56.463890  1.000000E+00    0.000000  1.000000E+00    0.000000
  0.038086750  9.578120E-01   95.240067  4.472861E-05   61.560543  1.000000E+00    0.000000  1.000000E+00    0.000000
  0.038786500  9.576778E-01   93.733833  3.574669E-05  109.695511  1.000000E+00    0.000000  1.000000E+00    0.000000
  0.039486250  9.574088E-01   92.159370  3.702834E-05   51.370739  1.000000E+00    0.000000  1.000000E+00    0.000000
  0.040186000  9.572054E-01   90.627403  5.750809E-05  106.147255  1.000000E+00    0.000000  1.000000E+00    0.000000
  0.040885750  9.567667E-01   89.071457  6.375098E-05   77.869843  1.000000E+00    0.000000  1.000000E+00    0.000000
  0.041585500  9.572225E-01   87.520027  3.995388E-05  112.667915  1.000000E+00    0.000000  1.000000E+00    0.000000
  0.042285250  9.573902E-01   85.965752  6.064376E-05   85.931007  1.000000E+00    0.000000  1.000000E+00    0.000000
  0.042985000  9.573609E-01   84.416679  7.124237E-05  141.282242  1.000000E+00    0.000000  1.000000E+00    0.000000
  0.043684750  9.569835E-01   82.900818  4.413399E-05   92.939919  1.000000E+00    0.000000  1.000000E+00    0.000000
  0.044384500  9.571691E-01   81.359230  8.786109E-05   99.175339  1.000000E+00    0.000000  1.000000E+00    0.000000
  0.045084250  9.569752E-01   79.823769  5.919569E-05  121.035881  1.000000E+00    0.000000  1.000000E+00    0.000000
  0.045784000  9.568866E-01   78.314148  7.070678E-05  114.393166  1.000000E+00    0.000000  1.000000E+00    0.000000
  0.046483750  9.569083E-01   76.803741  4.484223E-05   83.255325  1.000000E+00    0.000000  1.000000E+00    0.000000
  0.047183500  9.571317E-01   75.315887  6.006863E-05  130.194794  1.000000E+00    0.000000  1.000000E+00    0.000000
  0.047883250  9.567958E-01   73.744522  6.636007E-05  103.800888  1.000000E+00    0.000000  1.000000E+00    0.000000
  0.048583000  9.573578E-01   72.238701  5.401987E-05   94.745415  1.000000E+00    0.000000  1.000000E+00    0.000000
  0.049282750  9.575590E-01   70.695625  5.156582E-05  147.290146  1.000000E+00    0.000000  1.000000E+00    0.000000
  0.049982500  9.645762E-01   69.288727  6.482061E-05  108.361099  1.000000E+00    0.000000  1.000000E+00    0.000000
  0.050682250  9.639996E-01   67.777229  6.500988E-05  113.259834  1.000000E+00    0.000000  1.000000E+00    0.000000
  0.051382000  9.648199E-01   66.219246  8.335356E-05  148.880569  1.000000E+00    0.000000  1.000000E+00    0.000000
  0.052081750  9.648107E-01   64.676315  8.865958E-05  123.881042  1.000000E+00    0.000000  1.000000E+00    0.000000
  0.052781500  9.650382E-01   63.060570  3.593422E-05 -177.427261  1.000000E+00    0.000000  1.000000E+00    0.000000
  0.053481250  9.637646E-01   61.646137  6.617652E-05  136.585403  1.000000E+00    0.000000  1.000000E+00    0.000000
  0.054181000  9.641121E-01   60.005287  7.033770E-05  138.879410  1.000000E+00    0.000000  1.000000E+00    0.000000
  0.054880750  9.642993E-01   58.502579  8.382942E-05  119.280525  1.000000E+00    0.000000  1.000000E+00    0.000000
  0.055580500  9.640881E-01   56.953289  6.939100E-05  105.106361  1.000000E+00    0.000000  1.000000E+00    0.000000
  0.056280250  9.635627E-01   55.404556  4.664143E-05 -175.103226  1.000000E+00    0.000000  1.000000E+00    0.000000
  0.056980000  9.637839E-01   53.891464  4.847887E-05  168.319748  1.000000E+00    0.000000  1.000000E+00    0.000000
  0.057679750  9.625701E-01   52.339233  5.765707E-05  151.854553  1.000000E+00    0.000000  1.000000E+00    0.000000
  0.058379500  9.630690E-01   50.716022  7.411840E-05 -164.656830  1.000000E+00    0.000000  1.000000E+00    0.000000
  0.059079250  9.629049E-01   49.183952  5.599478E-05  168.952881  1.000000E+00    0.000000  1.000000E+00    0.000000
  0.059779000  9.624056E-01   47.613731  4.931538E-05 -146.789719  1.000000E+00    0.000000  1.000000E+00    0.000000
  0.060478750  9.615791E-01   46.090385  9.144514E-05  165.709930  1.000000E+00    0.000000  1.000000E+00    0.000000
  0.061178500  9.612574E-01   44.527653  6.380893E-05 -165.331757  1.000000E+00    0.000000  1.000000E+00    0.000000
  0.061878250  9.608013E-01   42.970665  7.684312E-05 -136.834290  1.000000E+00    0.000000  1.000000E+00    0.000000
  0.062578000  9.591215E-01   41.467857  7.361071E-05  165.781097  1.000000E+00    0.000000  1.000000E+00    0.000000
  0.063277750  9.596492E-01   39.872482  5.566359E-05  179.181152  1.000000E+00    0.000000  1.000000E+00    0.000000
  0.063977500  9.594998E-01   38.344761  7.300461E-05 -172.254211  1.000000E+00    0.000000  1.000000E+00    0.000000
  0.064677250  9.589349E-01   36.755119  3.921790E-05  165.628250  1.000000E+00    0.000000  1.000000E+00    0.000000
  0.065377000  9.585083E-01   35.169933  8.641982E-05  176.888306  1.000000E+00    0.000000  1.000000E+00    0.000000
  0.066076750  9.586937E-01   33.635452  5.724116E-05  160.740433  1.000000E+00    0.000000  1.000000E+00    0.000000
  0.066776500  9.584373E-01   32.069645  1.107189E-04  171.413910  1.000000E+00    0.000000  1.000000E+00    0.000000
  0.067476250  9.586022E-01   30.482632  6.803971E-05  165.838608  1.000000E+00    0.000000  1.000000E+00    0.000000
  0.068176000  9.579315E-01   28.992449  9.601669E-05 -166.553406  1.000000E+00    0.000000  1.000000E+00    0.000000
  0.068875750  9.581057E-01   27.396627  1.020171E-04 -152.858658  1.000000E+00    0.000000  1.000000E+00    0.000000
  0.069575500  9.574142E-01   25.844915  9.271633E-05 -163.093964  1.000000E+00    0.000000  1.000000E+00    0.000000
  0.070275250  9.576690E-01   24.237221  4.432942E-05 -103.411629  1.000000E+00    0.000000  1.000000E+00    0.000000
  0.070975000  9.580375E-01   22.691025  2.875225E-05 -175.881424  1.000000E+00    0.000000  1.000000E+00    0.000000
  0.071674750  9.576759E-01   21.120119  4.938915E-05 -117.490486  1.000000E+00    0.000000  1.000000E+00    0.000000
  0.072374500  9.581872E-01   19.564751  8.168791E-05 -156.545563  1.000000E+00    0.000000  1.000000E+00    0.000000
  0.073074250  9.578149E-01   18.001566  7.382830E-05 -144.085312  1.000000E+00    0.000000  1.000000E+00    0.000000
  0.073774000  9.582536E-01   16.457304  7.964671E-05 -155.315872  1.000000E+00    0.000000  1.000000E+00    0.000000
  0.074473750  9.582311E-01   14.924772  6.706957E-05 -174.342728  1.000000E+00    0.000000  1.000000E+00    0.000000
  0.075173500  9.579821E-01   13.342560  1.577538E-05 -155.373459  1.000000E+00    0.000000  1.000000E+00    0.000000
  0.075873250  9.585099E-01   11.804978  5.296411E-05 -105.003342  1.000000E+00    0.000000  1.000000E+00    0.000000
  0.076573000  9.589348E-01   10.239540  3.206921E-05  -92.231064  1.000000E+00    0.000000  1.000000E+00    0.000000
  0.077272750  9.590369E-01    8.740635  4.915563E-05 -173.731125  1.000000E+00    0.000000  1.000000E+00    0.000000
  0.077972500  9.587839E-01    7.171120  2.665082E-05 -150.972397  1.000000E+00    0.000000  1.000000E+00    0.000000
  0.078672250  9.593908E-01    5.643859  3.607960E-05 -138.973587  1.000000E+00    0.000000  1.000000E+00    0.000000
  0.079372000  9.588193E-01    4.065078  6.742623E-06  -89.202805  1.000000E+00    0.000000  1.000000E+00    0.000000
  0.080071750  9.582665E-01    2.554762  6.128886E-05 -118.616737  1.000000E+00    0.000000  1.000000E+00    0.000000
  0.080771500  9.586390E-01    0.979057  6.060224E-05 -100.380814  1.000000E+00    0.000000  1.000000E+00    0.000000
  0.081471250  9.582038E-01   -0.572112  3.989778E-05 -104.829826  1.000000E+00    0.000000  1.000000E+00    0.000000
  0.082171000  9.585461E-01   -2.116856  4.606733E-05  -83.626442  1.000000E+00    0.000000  1.000000E+00    0.000000
  0.082870750  9.588723E-01   -3.664269  5.180832E-05  -92.648064  1.000000E+00    0.000000  1.000000E+00    0.000000
  0.083570500  9.588468E-01   -5.216179  1.533649E-05  -28.675419  1.000000E+00    0.000000  1.000000E+00    0.000000
  0.084270250  9.582599E-01   -6.716201  3.553063E-05  -51.891129  1.000000E+00    0.000000  1.000000E+00    0.000000
  0.084970000  9.586295E-01   -8.303556  4.302898E-05 -113.997139  1.000000E+00    0.000000  1.000000E+00    0.000000
  0.085669750  9.577442E-01   -9.834961  5.189268E-05 -112.145309  1.000000E+00    0.000000  1.000000E+00    0.000000
  0.086369500  9.574479E-01  -11.389279  4.099183E-05  -89.093025  1.000000E+00    0.000000  1.000000E+00    0.000000
  0.087069250  9.578345E-01  -12.939299  7.847244E-06 -172.168335  1.000000E+00    0.000000  1.000000E+00    0.000000
  0.087769000  9.577065E-01  -14.473765  2.289207E-05  -74.997704  1.000000E+00    0.000000  1.000000E+00    0.000000
  0.088468750  9.573834E-01  -16.028851  6.687101E-05  -79.874977  1.000000E+00    0.000000  1.000000E+00    0.000000
  0.089168500  9.571218E-01  -17.551348  4.215396E-05  -92.479294  1.000000E+00    0.000000  1.000000E+00    0.000000
  0.089868250  9.568860E-01  -19.119631  6.694385E-05  -44.387711  1.000000E+00    0.000000  1.000000E+00    0.000000
  0.090568000  9.568501E-01  -20.648388  3.929899E-05 -109.511177  1.000000E+00    0.000000  1.000000E+00    0.000000
  0.091267750  9.567370E-01  -22.208652  3.249343E-05 -133.245041  1.000000E+00    0.000000  1.000000E+00    0.000000
  0.091967500  9.563727E-01  -23.765451  2.257257E-05  -42.373405  1.000000E+00    0.000000  1.000000E+00    0.000000
  0.092667250  9.558771E-01  -25.322834  4.092602E-05  -50.519321  1.000000E+00    0.000000  1.000000E+00    0.000000
  0.093367000  9.559630E-01  -26.860432  4.705079E-05  -83.665169  1.000000E+00    0.000000  1.000000E+00    0.000000
  0.094066750  9.556575E-01  -28.460552  3.141679E-05  -68.208618  1.000000E+00    0.000000  1.000000E+00    0.000000
  0.094766500  9.550619E-01  -30.023489  6.132169E-05  -29.793129  1.000000E+00    0.000000  1.000000E+00    0.000000
  0.095466250  9.551942E-01  -31.592863  8.302678E-06  -70.796593  1.000000E+00    0.000000  1.000000E+00    0.000000
  0.096166000  9.555437E-01  -33.104706  1.897676E-05   46.809875  1.000000E+00    0.000000  1.000000E+00    0.000000
  0.096865750  9.556428E-01  -34.659546  1.374329E-05   -4.458367  1.000000E+00    0.000000  1.000000E+00    0.000000
  0.097565500  9.555447E-01  -36.235077  2.837982E-05   -9.789315  1.000000E+00    0.000000  1.000000E+00    0.000000
  0.098265250  9.555249E-01  -37.787941  2.000030E-05  -30.326529  1.000000E+00    0.000000  1.000000E+00    0.000000
  0.098965000  9.560789E-01  -39.318577  3.004768E-05  -52.046200  1.000000E+00    0.000000  1.000000E+00    0.000000
  0.099664750  9.564350E-01  -40.827362  1.067584E-05   39.396030  1.000000E+00    0.000000  1.000000E+00    0.000000
  0.100364500  9.582127E-01  -42.352478  4.880918E-05  -23.132095  1.000000E+00    0.000000  1.000000E+00    0.000000
  0.101064250  9.583943E-01  -43.903370  2.973237E-05  -25.453857  1.000000E+00    0.000000  1.000000E+00    0.000000
  0.101764000  9.581896E-01  -45.410309  2.842234E-05  -21.642803  1.000000E+00    0.000000  1.000000E+00    0.000000
  0.102463750  9.583783E-01  -46.958248  3.371609E-05  -23.088226  1.000000E+00    0.000000  1.000000E+00    0.000000
  0.103163500  9.578176E-01  -48.446232  3.251918E-05  -38.866402  1.000000E+00    0.000000  1.000000E+00    0.000000
  0.103863250  9.585345E-01  -50.038696  7.371472E-05    3.883025  1.000000E+00    0.000000  1.000000E+00    0.000000
  0.104563000  9.577478E-01  -51.575867  3.001825E-05  -22.642447  1.000000E+00    0.000000  1.000000E+00    0.000000
  0.105262750  9.576828E-01  -53.123196  4.334552E-05   21.483540  1.000000E+00    0.000000  1.000000E+00    0.000000
  0.105962500  9.574233E-01  -54.617424  3.356794E-05   39.236961  1.000000E+00    0.000000  1.000000E+00    0.000000
  0.106662250  9.565654E-01  -56.148457  5.350966E-05  -12.939945  1.000000E+00    0.000000  1.000000E+00    0.000000
  0.107362000  9.568475E-01  -57.655907  4.360269E-05    5.666791  1.000000E+00    0.000000  1.000000E+00    0.000000
  0.108061750  9.550989E-01  -59.231113  8.965205E-06  -63.676289  1.000000E+00    0.000000  1.000000E+00    0.000000
  0.108761500  9.562856E-01  -60.740765  4.844347E-05   -3.808312  1.000000E+00    0.000000  1.000000E+00    0.000000
  0.109461250  9.549947E-01  -62.329922  2.665525E-05    7.277941  1.000000E+00    0.000000  1.000000E+00    0.000000
