! Anritsu VNA Master:                           Model: MS2025B
! SN:                                  1642059
! /bd0/PROE/TP1/CoaxTra.s2p
! Existing Calibration Information:
! TYPE:                         Current Settings,       Active Cal Settings
! TIME:             	   04/16/2024 09:49:30 AM,    03/12/2018 11:45:53 AM
! INTERNAL TEMP:    	                   43.5 C,                    40.8 C
! # POINTS:         	                     2857,                      4001
! START FREQ:       	                1.000 MHz,                 1.000 MHz
! STOP FREQ:        	            1.999 486 GHz,                 2.800 GHz
! SOURCE POWER:     	                  Default,                   Default
! IFBW:             	                    1 kHz,                     1 kHz
! AVG FACTOR:       	                       1 ,                        1 
! REF PLANE 1:      	                     0 mm,                      0 mm
! REF PLANE 2:      	                     0 mm,                      0 mm
! CAL TYPE:         	             1P2P S11,S21,              1P2P S11,S21
! CAL METHOD:       	                     SOLT,                      SOLT
! CAL LINE TYPE:    	                     Coax,                      Coax
! DUT PORT 1:       	                         ,                          
! DUT PORT 2:       	                N-Conn(M),                 N-Conn(M)
! CAL STATUS:       	        OK: Accuracy High,                        --
# GHZ S MA R 50.0
! FREQ.GHZ       S11M         S11A         S21M         S21A         S12M         S12A         S22M         S22A
  0.001000000  1.294675E-02  103.893105  9.925749E-01   -0.867902  1.000000E+00    0.000000  1.000000E+00    0.000000
  0.001699750  1.087099E-02  118.379005  9.780098E-01   -1.787232  1.000000E+00    0.000000  1.000000E+00    0.000000
  0.002399500  1.156822E-02  110.496208  9.985241E-01   -2.606558  1.000000E+00    0.000000  1.000000E+00    0.000000
  0.003099250  1.220291E-02  103.121475  9.842321E-01   -3.252189  1.000000E+00    0.000000  1.000000E+00    0.000000
  0.003799000  1.185729E-02   92.155373  9.774280E-01   -4.050159  1.000000E+00    0.000000  1.000000E+00    0.000000
  0.004498750  1.217170E-02   86.416130  9.799609E-01   -4.705483  1.000000E+00    0.000000  1.000000E+00    0.000000
  0.005198500  1.224704E-02   77.936874  9.910156E-01   -5.749016  1.000000E+00    0.000000  1.000000E+00    0.000000
  0.005898250  1.238063E-02   72.312927  9.874870E-01   -6.449740  1.000000E+00    0.000000  1.000000E+00    0.000000
  0.006598000  1.191879E-02   64.359375  9.814306E-01   -7.044509  1.000000E+00    0.000000  1.000000E+00    0.000000
  0.007297750  1.204281E-02   55.682304  9.868574E-01   -7.786644  1.000000E+00    0.000000  1.000000E+00    0.000000
  0.007997500  1.186491E-02   52.394672  9.871859E-01   -8.721929  1.000000E+00    0.000000  1.000000E+00    0.000000
  0.008697250  1.160413E-02   47.061642  9.853298E-01   -9.476221  1.000000E+00    0.000000  1.000000E+00    0.000000
  0.009397000  1.134663E-02   43.698227  9.827439E-01  -10.370832  1.000000E+00    0.000000  1.000000E+00    0.000000
  0.010096750  1.119143E-02   39.569668  9.807327E-01  -11.064066  1.000000E+00    0.000000  1.000000E+00    0.000000
  0.010796500  1.145533E-02   32.984669  9.801626E-01  -11.724625  1.000000E+00    0.000000  1.000000E+00    0.000000
  0.011496250  1.116136E-02   31.270567  9.806983E-01  -12.541717  1.000000E+00    0.000000  1.000000E+00    0.000000
  0.012196000  1.119724E-02   24.565935  9.805397E-01  -13.404384  1.000000E+00    0.000000  1.000000E+00    0.000000
  0.012895750  1.072733E-02   23.382282  9.818350E-01  -14.098632  1.000000E+00    0.000000  1.000000E+00    0.000000
  0.013595500  1.009776E-02   20.694517  9.818331E-01  -15.005854  1.000000E+00    0.000000  1.000000E+00    0.000000
  0.014295250  1.052615E-02   16.595181  9.856240E-01  -15.845441  1.000000E+00    0.000000  1.000000E+00    0.000000
  0.014995000  9.959552E-03   13.646053  9.849661E-01  -16.609207  1.000000E+00    0.000000  1.000000E+00    0.000000
  0.015694750  9.936927E-03    8.398681  9.847958E-01  -17.346590  1.000000E+00    0.000000  1.000000E+00    0.000000
  0.016394500  9.743972E-03    7.651243  9.867004E-01  -18.068996  1.000000E+00    0.000000  1.000000E+00    0.000000
  0.017094250  9.706826E-03    3.934359  9.873591E-01  -18.897314  1.000000E+00    0.000000  1.000000E+00    0.000000
  0.017794000  9.137476E-03    2.735938  9.868120E-01  -19.788239  1.000000E+00    0.000000  1.000000E+00    0.000000
  0.018493750  8.902136E-03   -2.436327  9.871960E-01  -20.599710  1.000000E+00    0.000000  1.000000E+00    0.000000
  0.019193500  9.054355E-03   -2.301764  9.876722E-01  -21.425257  1.000000E+00    0.000000  1.000000E+00    0.000000
  0.019893250  8.334723E-03   -5.035119  9.876682E-01  -22.100452  1.000000E+00    0.000000  1.000000E+00    0.000000
  0.020593000  8.713004E-03   -8.584956  9.885705E-01  -22.990793  1.000000E+00    0.000000  1.000000E+00    0.000000
  0.021292750  8.484052E-03   -9.428437  9.892132E-01  -23.679756  1.000000E+00    0.000000  1.000000E+00    0.000000
  0.021992500  8.136505E-03  -13.766873  9.885762E-01  -24.475809  1.000000E+00    0.000000  1.000000E+00    0.000000
  0.022692250  7.643714E-03  -13.627772  9.881314E-01  -25.285395  1.000000E+00    0.000000  1.000000E+00    0.000000
  0.023392000  7.594877E-03  -16.759335  9.880613E-01  -25.879053  1.000000E+00    0.000000  1.000000E+00    0.000000
  0.024091750  7.370856E-03  -18.444216  9.889504E-01  -26.646563  1.000000E+00    0.000000  1.000000E+00    0.000000
  0.024791500  7.637785E-03  -19.804327  9.864358E-01  -27.445641  1.000000E+00    0.000000  1.000000E+00    0.000000
  0.025491250  7.392915E-03  -22.838680  9.616149E-01  -27.407183  1.000000E+00    0.000000  1.000000E+00    0.000000
  0.026191000  6.966825E-03  -21.418085  9.611176E-01  -28.107040  1.000000E+00    0.000000  1.000000E+00    0.000000
  0.026890750  6.905477E-03  -23.404652  9.672344E-01  -28.973146  1.000000E+00    0.000000  1.000000E+00    0.000000
  0.027590500  6.069161E-03  -27.193197  9.726862E-01  -29.844830  1.000000E+00    0.000000  1.000000E+00    0.000000
  0.028290250  6.118115E-03  -31.785614  9.778626E-01  -30.662607  1.000000E+00    0.000000  1.000000E+00    0.000000
  0.028990000  6.499587E-03  -32.128399  9.824758E-01  -31.568270  1.000000E+00    0.000000  1.000000E+00    0.000000
  0.029689750  6.334126E-03  -32.165421  9.861413E-01  -32.574547  1.000000E+00    0.000000  1.000000E+00    0.000000
  0.030389500  5.921460E-03  -33.182613  9.887070E-01  -33.339622  1.000000E+00    0.000000  1.000000E+00    0.000000
  0.031089250  6.457556E-03  -36.968185  9.918391E-01  -34.241898  1.000000E+00    0.000000  1.000000E+00    0.000000
  0.031789000  5.599980E-03  -38.068821  9.927695E-01  -35.231476  1.000000E+00    0.000000  1.000000E+00    0.000000
  0.032488750  5.822310E-03  -34.166531  9.928945E-01  -35.964005  1.000000E+00    0.000000  1.000000E+00    0.000000
  0.033188500  5.424744E-03  -35.852943  9.926274E-01  -36.662849  1.000000E+00    0.000000  1.000000E+00    0.000000
  0.033888250  5.260263E-03  -35.295822  9.934584E-01  -37.591568  1.000000E+00    0.000000  1.000000E+00    0.000000
  0.034588000  5.366288E-03  -43.126419  9.924104E-01  -38.425232  1.000000E+00    0.000000  1.000000E+00    0.000000
  0.035287750  5.589061E-03  -38.324524  9.910716E-01  -39.259010  1.000000E+00    0.000000  1.000000E+00    0.000000
  0.035987500  5.220934E-03  -42.471996  9.914339E-01  -40.155773  1.000000E+00    0.000000  1.000000E+00    0.000000
  0.036687250  5.281136E-03  -41.604137  9.894294E-01  -40.900322  1.000000E+00    0.000000  1.000000E+00    0.000000
  0.037387000  5.004587E-03  -38.012611  9.887563E-01  -41.573643  1.000000E+00    0.000000  1.000000E+00    0.000000
  0.038086750  5.629325E-03  -42.513161  9.878287E-01  -42.384895  1.000000E+00    0.000000  1.000000E+00    0.000000
  0.038786500  5.530868E-03  -42.693211  9.863070E-01  -43.082840  1.000000E+00    0.000000  1.000000E+00    0.000000
  0.039486250  5.639724E-03  -43.255810  9.852646E-01  -43.975891  1.000000E+00    0.000000  1.000000E+00    0.000000
  0.040186000  5.421179E-03  -44.310570  9.830860E-01  -44.666843  1.000000E+00    0.000000  1.000000E+00    0.000000
  0.040885750  5.838173E-03  -45.349545  9.816300E-01  -45.483925  1.000000E+00    0.000000  1.000000E+00    0.000000
  0.041585500  6.144349E-03  -45.125149  9.834832E-01  -46.210182  1.000000E+00    0.000000  1.000000E+00    0.000000
  0.042285250  6.339746E-03  -43.879673  9.811801E-01  -47.125011  1.000000E+00    0.000000  1.000000E+00    0.000000
  0.042985000  6.351439E-03  -45.310524  9.813747E-01  -47.812263  1.000000E+00    0.000000  1.000000E+00    0.000000
  0.043684750  6.469878E-03  -45.855484  9.797358E-01  -48.580582  1.000000E+00    0.000000  1.000000E+00    0.000000
  0.044384500  6.913573E-03  -46.910923  9.805654E-01  -49.412827  1.000000E+00    0.000000  1.000000E+00    0.000000
  0.045084250  7.187760E-03  -45.251335  9.811456E-01  -50.188507  1.000000E+00    0.000000  1.000000E+00    0.000000
  0.045784000  7.084626E-03  -49.124111  9.814292E-01  -50.865887  1.000000E+00    0.000000  1.000000E+00    0.000000
  0.046483750  7.232934E-03  -48.497643  9.799699E-01  -51.696487  1.000000E+00    0.000000  1.000000E+00    0.000000
  0.047183500  7.327535E-03  -48.789715  9.799999E-01  -52.396767  1.000000E+00    0.000000  1.000000E+00    0.000000
  0.047883250  7.672390E-03  -48.491425  9.808043E-01  -53.197586  1.000000E+00    0.000000  1.000000E+00    0.000000
  0.048583000  7.707018E-03  -50.139465  9.800078E-01  -54.029560  1.000000E+00    0.000000  1.000000E+00    0.000000
  0.049282750  8.088543E-03  -53.694675  9.784049E-01  -54.807758  1.000000E+00    0.000000  1.000000E+00    0.000000
  0.049982500  8.502612E-03  -49.744892  9.573973E-01  -54.828320  1.000000E+00    0.000000  1.000000E+00    0.000000
  0.050682250  8.801766E-03  -52.507591  9.560633E-01  -55.608295  1.000000E+00    0.000000  1.000000E+00    0.000000
  0.051382000  9.219736E-03  -51.457588  9.571286E-01  -56.445045  1.000000E+00    0.000000  1.000000E+00    0.000000
  0.052081750  9.732765E-03  -55.905388  9.576442E-01  -57.125778  1.000000E+00    0.000000  1.000000E+00    0.000000
  0.052781500  9.553831E-03  -55.372700  9.603319E-01  -57.917953  1.000000E+00    0.000000  1.000000E+00    0.000000
  0.053481250  9.809025E-03  -54.886082  9.625931E-01  -58.728172  1.000000E+00    0.000000  1.000000E+00    0.000000
  0.054181000  1.014282E-02  -55.120045  9.644074E-01  -59.528042  1.000000E+00    0.000000  1.000000E+00    0.000000
  0.054880750  1.081150E-02  -55.775436  9.655117E-01  -60.414238  1.000000E+00    0.000000  1.000000E+00    0.000000
  0.055580500  1.098946E-02  -57.373814  9.683888E-01  -61.145084  1.000000E+00    0.000000  1.000000E+00    0.000000
  0.056280250  1.159226E-02  -59.071041  9.739268E-01  -62.017250  1.000000E+00    0.000000  1.000000E+00    0.000000
  0.056980000  1.166968E-02  -59.593594  9.750118E-01  -62.691124  1.000000E+00    0.000000  1.000000E+00    0.000000
  0.057679750  1.193354E-02  -60.388809  9.764979E-01  -63.539940  1.000000E+00    0.000000  1.000000E+00    0.000000
  0.058379500  1.206650E-02  -62.325512  9.775831E-01  -64.363777  1.000000E+00    0.000000  1.000000E+00    0.000000
  0.059079250  1.199225E-02  -62.885818  9.770645E-01  -65.106476  1.000000E+00    0.000000  1.000000E+00    0.000000
  0.059779000  1.271577E-02  -63.034420  9.807929E-01  -65.851646  1.000000E+00    0.000000  1.000000E+00    0.000000
  0.060478750  1.297278E-02  -63.924957  9.808682E-01  -66.614365  1.000000E+00    0.000000  1.000000E+00    0.000000
  0.061178500  1.331811E-02  -67.504143  9.821104E-01  -67.426376  1.000000E+00    0.000000  1.000000E+00    0.000000
  0.061878250  1.336487E-02  -68.590187  9.837048E-01  -68.133133  1.000000E+00    0.000000  1.000000E+00    0.000000
  0.062578000  1.372295E-02  -69.208641  9.858274E-01  -68.918549  1.000000E+00    0.000000  1.000000E+00    0.000000
  0.063277750  1.373675E-02  -70.922646  9.856705E-01  -69.761177  1.000000E+00    0.000000  1.000000E+00    0.000000
  0.063977500  1.393585E-02  -69.644630  9.866984E-01  -70.493942  1.000000E+00    0.000000  1.000000E+00    0.000000
  0.064677250  1.430574E-02  -71.591446  9.848664E-01  -71.339302  1.000000E+00    0.000000  1.000000E+00    0.000000
  0.065377000  1.447708E-02  -75.969780  9.844965E-01  -71.961090  1.000000E+00    0.000000  1.000000E+00    0.000000
  0.066076750  1.438300E-02  -75.233978  9.836221E-01  -72.655426  1.000000E+00    0.000000  1.000000E+00    0.000000
  0.066776500  1.464874E-02  -75.764145  9.845228E-01  -73.545975  1.000000E+00    0.000000  1.000000E+00    0.000000
  0.067476250  1.513158E-02  -76.154167  9.863776E-01  -74.301163  1.000000E+00    0.000000  1.000000E+00    0.000000
  0.068176000  1.504231E-02  -78.597176  9.842961E-01  -75.068298  1.000000E+00    0.000000  1.000000E+00    0.000000
  0.068875750  1.566974E-02  -79.247253  9.822575E-01  -75.846687  1.000000E+00    0.000000  1.000000E+00    0.000000
  0.069575500  1.564959E-02  -79.308212  9.815570E-01  -76.617149  1.000000E+00    0.000000  1.000000E+00    0.000000
  0.070275250  1.565881E-02  -80.659599  9.806141E-01  -77.516563  1.000000E+00    0.000000  1.000000E+00    0.000000
  0.070975000  1.572842E-02  -82.362816  9.794995E-01  -78.338348  1.000000E+00    0.000000  1.000000E+00    0.000000
  0.071674750  1.552248E-02  -83.425377  9.790925E-01  -79.090576  1.000000E+00    0.000000  1.000000E+00    0.000000
  0.072374500  1.558110E-02  -84.451683  9.785030E-01  -79.916588  1.000000E+00    0.000000  1.000000E+00    0.000000
  0.073074250  1.589774E-02  -85.763290  9.781701E-01  -80.726952  1.000000E+00    0.000000  1.000000E+00    0.000000
  0.073774000  1.590751E-02  -87.405167  9.765394E-01  -81.574547  1.000000E+00    0.000000  1.000000E+00    0.000000
  0.074473750  1.581254E-02  -89.445778  9.772378E-01  -82.424309  1.000000E+00    0.000000  1.000000E+00    0.000000
  0.075173500  1.545151E-02  -90.419098  9.761157E-01  -83.130356  1.000000E+00    0.000000  1.000000E+00    0.000000
  0.075873250  1.576545E-02  -90.946815  9.752916E-01  -83.900322  1.000000E+00    0.000000  1.000000E+00    0.000000
  0.076573000  1.592331E-02  -91.037979  9.753733E-01  -84.788979  1.000000E+00    0.000000  1.000000E+00    0.000000
  0.077272750  1.585725E-02  -93.766319  9.753404E-01  -85.579453  1.000000E+00    0.000000  1.000000E+00    0.000000
  0.077972500  1.572210E-02  -94.005196  9.753535E-01  -86.351807  1.000000E+00    0.000000  1.000000E+00    0.000000
  0.078672250  1.581776E-02  -95.989998  9.743652E-01  -87.260887  1.000000E+00    0.000000  1.000000E+00    0.000000
  0.079372000  1.571410E-02  -95.986504  9.741310E-01  -88.009148  1.000000E+00    0.000000  1.000000E+00    0.000000
  0.080071750  1.537320E-02  -98.289017  9.731938E-01  -88.790611  1.000000E+00    0.000000  1.000000E+00    0.000000
  0.080771500  1.523867E-02  -99.087479  9.732494E-01  -89.594307  1.000000E+00    0.000000  1.000000E+00    0.000000
  0.081471250  1.472097E-02 -100.025101  9.727097E-01  -90.355186  1.000000E+00    0.000000  1.000000E+00    0.000000
  0.082171000  1.524535E-02 -101.024544  9.734540E-01  -91.240036  1.000000E+00    0.000000  1.000000E+00    0.000000
  0.082870750  1.497443E-02 -102.151787  9.734667E-01  -92.099831  1.000000E+00    0.000000  1.000000E+00    0.000000
  0.083570500  1.517095E-02 -103.882584  9.720821E-01  -92.854477  1.000000E+00    0.000000  1.000000E+00    0.000000
  0.084270250  1.499714E-02 -105.724358  9.740937E-01  -93.700256  1.000000E+00    0.000000  1.000000E+00    0.000000
  0.084970000  1.490469E-02 -105.921867  9.738381E-01  -94.462387  1.000000E+00    0.000000  1.000000E+00    0.000000
  0.085669750  1.443572E-02 -106.913506  9.741759E-01  -95.277023  1.000000E+00    0.000000  1.000000E+00    0.000000
  0.086369500  1.409635E-02 -107.410889  9.735255E-01  -96.041183  1.000000E+00    0.000000  1.000000E+00    0.000000
  0.087069250  1.428446E-02 -108.844482  9.736256E-01  -96.845390  1.000000E+00    0.000000  1.000000E+00    0.000000
  0.087769000  1.404621E-02 -109.969162  9.741666E-01  -97.598236  1.000000E+00    0.000000  1.000000E+00    0.000000
  0.088468750  1.425447E-02 -110.551201  9.746426E-01  -98.419266  1.000000E+00    0.000000  1.000000E+00    0.000000
  0.089168500  1.384132E-02 -112.642532  9.747465E-01  -99.194717  1.000000E+00    0.000000  1.000000E+00    0.000000
  0.089868250  1.361067E-02 -112.701775  9.756132E-01  -99.940109  1.000000E+00    0.000000  1.000000E+00    0.000000
  0.090568000  1.307375E-02 -113.541931  9.758052E-01 -100.714432  1.000000E+00    0.000000  1.000000E+00    0.000000
  0.091267750  1.318518E-02 -116.138054  9.758771E-01 -101.556709  1.000000E+00    0.000000  1.000000E+00    0.000000
  0.091967500  1.321578E-02 -116.359337  9.765232E-01 -102.259346  1.000000E+00    0.000000  1.000000E+00    0.000000
  0.092667250  1.248396E-02 -117.942139  9.762393E-01 -103.036560  1.000000E+00    0.000000  1.000000E+00    0.000000
  0.093367000  1.263282E-02 -117.249908  9.768941E-01 -103.802299  1.000000E+00    0.000000  1.000000E+00    0.000000
  0.094066750  1.196551E-02 -120.888649  9.755990E-01 -104.541893  1.000000E+00    0.000000  1.000000E+00    0.000000
  0.094766500  1.213913E-02 -120.088539  9.779251E-01 -105.352966  1.000000E+00    0.000000  1.000000E+00    0.000000
  0.095466250  1.198961E-02 -122.404144  9.767962E-01 -106.069611  1.000000E+00    0.000000  1.000000E+00    0.000000
  0.096166000  1.178558E-02 -121.861534  9.763842E-01 -106.814339  1.000000E+00    0.000000  1.000000E+00    0.000000
  0.096865750  1.120831E-02 -123.070297  9.761872E-01 -107.628410  1.000000E+00    0.000000  1.000000E+00    0.000000
  0.097565500  1.145131E-02 -123.333229  9.785720E-01 -108.380974  1.000000E+00    0.000000  1.000000E+00    0.000000
  0.098265250  1.114302E-02 -126.224930  9.770945E-01 -109.218895  1.000000E+00    0.000000  1.000000E+00    0.000000
  0.098965000  1.136478E-02 -125.982605  9.785071E-01 -109.922806  1.000000E+00    0.000000  1.000000E+00    0.000000
  0.099664750  1.088500E-02 -127.457733  9.772681E-01 -110.689491  1.000000E+00    0.000000  1.000000E+00    0.000000
  0.100364500  1.047810E-02 -129.347809  9.821321E-01 -110.533264  1.000000E+00    0.000000  1.000000E+00    0.000000
  0.101064250  1.038923E-02 -128.289780  9.816099E-01 -111.400581  1.000000E+00    0.000000  1.000000E+00    0.000000
  0.101764000  1.037725E-02 -131.162842  9.815472E-01 -112.150917  1.000000E+00    0.000000  1.000000E+00    0.000000
  0.102463750  1.034134E-02 -130.409180  9.795173E-01 -112.939209  1.000000E+00    0.000000  1.000000E+00    0.000000
  0.103163500  1.044073E-02 -132.582184  9.814131E-01 -113.702370  1.000000E+00    0.000000  1.000000E+00    0.000000
  0.103863250  9.877472E-03 -133.851654  9.806470E-01 -114.406250  1.000000E+00    0.000000  1.000000E+00    0.000000
  0.104563000  1.028085E-02 -132.380234  9.802807E-01 -115.289429  1.000000E+00    0.000000  1.000000E+00    0.000000
  0.105262750  1.020989E-02 -136.516876  9.794987E-01 -116.032227  1.000000E+00    0.000000  1.000000E+00    0.000000
  0.105962500  9.853877E-03 -135.901779  9.796137E-01 -116.788216  1.000000E+00    0.000000  1.000000E+00    0.000000
  0.106662250  9.803933E-03 -136.781998  9.778972E-01 -117.566093  1.000000E+00    0.000000  1.000000E+00    0.000000
  0.107362000  9.692370E-03 -136.318954  9.781784E-01 -118.343330  1.000000E+00    0.000000  1.000000E+00    0.000000
  0.108061750  9.218981E-03 -138.414734  9.782376E-01 -119.145355  1.000000E+00    0.000000  1.000000E+00    0.000000
  0.108761500  9.986104E-03 -138.139343  9.786263E-01 -119.875679  1.000000E+00    0.000000  1.000000E+00    0.000000
  0.109461250  9.728869E-03 -139.756302  9.786724E-01 -120.696640  1.000000E+00    0.000000  1.000000E+00    0.000000
