! Anritsu VNA Master:                           Model: MS2025B
! SN:                                  1642059
! /bd0/PROE/TP1/CoaxOC.s2p
! Existing Calibration Information:
! TYPE:                         Current Settings,       Active Cal Settings
! TIME:             	   04/16/2024 09:39:41 AM,    03/12/2018 11:45:53 AM
! INTERNAL TEMP:    	                   43.5 C,                    40.8 C
! # POINTS:         	                     2857,                      4001
! START FREQ:       	                1.000 MHz,                 1.000 MHz
! STOP FREQ:        	            1.999 486 GHz,                 2.800 GHz
! SOURCE POWER:     	                  Default,                   Default
! IFBW:             	                    1 kHz,                     1 kHz
! AVG FACTOR:       	                       1 ,                        1 
! REF PLANE 1:      	                     0 mm,                      0 mm
! REF PLANE 2:      	                     0 mm,                      0 mm
! CAL TYPE:         	             1P2P S11,S21,              1P2P S11,S21
! CAL METHOD:       	                     SOLT,                      SOLT
! CAL LINE TYPE:    	                     Coax,                      Coax
! DUT PORT 1:       	                         ,                          
! DUT PORT 2:       	                N-Conn(M),                 N-Conn(M)
! CAL STATUS:       	        OK: Accuracy High,                        --
# GHZ S MA R 50.0
! FREQ.GHZ       S11M         S11A         S21M         S21A         S12M         S12A         S22M         S22A
  0.001000000  9.965543E-01   -1.724329  4.497274E-05  -68.735420  1.000000E+00    0.000000  1.000000E+00    0.000000
  0.001699750  9.921271E-01   -3.301965  4.274767E-05 -101.786911  1.000000E+00    0.000000  1.000000E+00    0.000000
  0.002399500  9.907965E-01   -4.878590  3.825430E-05  -52.788372  1.000000E+00    0.000000  1.000000E+00    0.000000
  0.003099250  9.888585E-01   -6.483558  4.667351E-05  -83.319328  1.000000E+00    0.000000  1.000000E+00    0.000000
  0.003799000  9.918702E-01   -8.047740  2.919394E-05 -109.590454  1.000000E+00    0.000000  1.000000E+00    0.000000
  0.004498750  9.892873E-01   -9.647571  5.767457E-05  -98.982826  1.000000E+00    0.000000  1.000000E+00    0.000000
  0.005198500  9.890130E-01  -11.176242  2.993547E-05  -80.770309  1.000000E+00    0.000000  1.000000E+00    0.000000
  0.005898250  9.908000E-01  -12.770988  3.574005E-05  -97.465393  1.000000E+00    0.000000  1.000000E+00    0.000000
  0.006598000  9.901485E-01  -14.313455  5.892399E-05  -67.115448  1.000000E+00    0.000000  1.000000E+00    0.000000
  0.007297750  9.902770E-01  -15.843367  3.639710E-05    7.864127  1.000000E+00    0.000000  1.000000E+00    0.000000
  0.007997500  9.884100E-01  -17.440407  5.229265E-05 -105.375648  1.000000E+00    0.000000  1.000000E+00    0.000000
  0.008697250  9.906744E-01  -19.086327  5.911172E-05  -13.277555  1.000000E+00    0.000000  1.000000E+00    0.000000
  0.009397000  9.910528E-01  -20.639801  5.575029E-05  -30.774233  1.000000E+00    0.000000  1.000000E+00    0.000000
  0.010096750  9.927664E-01  -22.205692  6.283243E-05  -78.727036  1.000000E+00    0.000000  1.000000E+00    0.000000
  0.010796500  9.935067E-01  -23.742281  3.892201E-05    5.690614  1.000000E+00    0.000000  1.000000E+00    0.000000
  0.011496250  9.937519E-01  -25.335163  4.265723E-05  -85.480675  1.000000E+00    0.000000  1.000000E+00    0.000000
  0.012196000  9.933330E-01  -26.926371  1.375044E-05  -24.378826  1.000000E+00    0.000000  1.000000E+00    0.000000
  0.012895750  9.929677E-01  -28.486458  5.777952E-05  -45.790680  1.000000E+00    0.000000  1.000000E+00    0.000000
  0.013595500  9.934878E-01  -30.033045  6.875836E-05  -18.186985  1.000000E+00    0.000000  1.000000E+00    0.000000
  0.014295250  9.945984E-01  -31.565815  2.215685E-05  -37.578148  1.000000E+00    0.000000  1.000000E+00    0.000000
  0.014995000  9.942279E-01  -33.127880  2.439494E-05   -5.434310  1.000000E+00    0.000000  1.000000E+00    0.000000
  0.015694750  9.942567E-01  -34.665592  4.838327E-05  -24.359121  1.000000E+00    0.000000  1.000000E+00    0.000000
  0.016394500  9.937948E-01  -36.241463  1.576908E-05   43.204590  1.000000E+00    0.000000  1.000000E+00    0.000000
  0.017094250  9.943102E-01  -37.799362  4.886724E-05   43.576843  1.000000E+00    0.000000  1.000000E+00    0.000000
  0.017794000  9.934654E-01  -39.336082  3.127699E-05   69.667580  1.000000E+00    0.000000  1.000000E+00    0.000000
  0.018493750  9.940323E-01  -40.913536  5.864520E-05   48.282024  1.000000E+00    0.000000  1.000000E+00    0.000000
  0.019193500  9.937750E-01  -42.470787  1.992776E-05   38.889668  1.000000E+00    0.000000  1.000000E+00    0.000000
  0.019893250  9.923096E-01  -44.002476  3.285315E-05  -11.191660  1.000000E+00    0.000000  1.000000E+00    0.000000
  0.020593000  9.933453E-01  -45.573376  4.597192E-05   -0.728239  1.000000E+00    0.000000  1.000000E+00    0.000000
  0.021292750  9.923217E-01  -47.095993  2.408506E-05   25.847132  1.000000E+00    0.000000  1.000000E+00    0.000000
  0.021992500  9.918776E-01  -48.685299  5.073711E-05   38.581875  1.000000E+00    0.000000  1.000000E+00    0.000000
  0.022692250  9.917926E-01  -50.281391  7.818774E-05  -23.302307  1.000000E+00    0.000000  1.000000E+00    0.000000
  0.023392000  9.909438E-01  -51.805515  2.579569E-05   -0.955360  1.000000E+00    0.000000  1.000000E+00    0.000000
  0.024091750  9.914623E-01  -53.382824  2.663385E-05   35.454151  1.000000E+00    0.000000  1.000000E+00    0.000000
  0.024791500  9.910955E-01  -54.894218  7.921515E-05    9.420170  1.000000E+00    0.000000  1.000000E+00    0.000000
  0.025491250  9.972190E-01  -56.290634  5.949856E-05   15.389805  1.000000E+00    0.000000  1.000000E+00    0.000000
  0.026191000  9.958356E-01  -57.919258  5.270316E-05   10.418814  1.000000E+00    0.000000  1.000000E+00    0.000000
  0.026890750  9.949321E-01  -59.533890  3.779826E-05   39.837826  1.000000E+00    0.000000  1.000000E+00    0.000000
  0.027590500  9.947156E-01  -61.106289  3.655887E-05   11.166965  1.000000E+00    0.000000  1.000000E+00    0.000000
  0.028290250  9.940463E-01  -62.775661  4.837244E-05   -4.216722  1.000000E+00    0.000000  1.000000E+00    0.000000
  0.028990000  9.933650E-01  -64.326294  1.143930E-05   98.898949  1.000000E+00    0.000000  1.000000E+00    0.000000
  0.029689750  9.921224E-01  -65.927567  7.360202E-05   30.065359  1.000000E+00    0.000000  1.000000E+00    0.000000
  0.030389500  9.921274E-01  -67.557541  7.119824E-05   64.345146  1.000000E+00    0.000000  1.000000E+00    0.000000
  0.031089250  9.899989E-01  -69.143623  5.359606E-05   32.931698  1.000000E+00    0.000000  1.000000E+00    0.000000
  0.031789000  9.894470E-01  -70.722794  7.871870E-05   42.574200  1.000000E+00    0.000000  1.000000E+00    0.000000
  0.032488750  9.885744E-01  -72.271667  5.977666E-05   66.523605  1.000000E+00    0.000000  1.000000E+00    0.000000
  0.033188500  9.875653E-01  -73.861725  7.832063E-05   66.865707  1.000000E+00    0.000000  1.000000E+00    0.000000
  0.033888250  9.864774E-01  -75.412163  4.389802E-05   64.421867  1.000000E+00    0.000000  1.000000E+00    0.000000
  0.034588000  9.860502E-01  -77.017357  7.143663E-05   32.283272  1.000000E+00    0.000000  1.000000E+00    0.000000
  0.035287750  9.852279E-01  -78.561348  6.514748E-05   33.773808  1.000000E+00    0.000000  1.000000E+00    0.000000
  0.035987500  9.856361E-01  -80.201157  8.517380E-05   67.251633  1.000000E+00    0.000000  1.000000E+00    0.000000
  0.036687250  9.837177E-01  -81.786377  5.270942E-05   33.662998  1.000000E+00    0.000000  1.000000E+00    0.000000
  0.037387000  9.839577E-01  -83.352654  4.587159E-05   11.271020  1.000000E+00    0.000000  1.000000E+00    0.000000
  0.038086750  9.835346E-01  -84.946182  7.747186E-05   96.735863  1.000000E+00    0.000000  1.000000E+00    0.000000
  0.038786500  9.834313E-01  -86.479088  2.167842E-05    5.164966  1.000000E+00    0.000000  1.000000E+00    0.000000
  0.039486250  9.835964E-01  -88.095383  3.832284E-05   44.535786  1.000000E+00    0.000000  1.000000E+00    0.000000
  0.040186000  9.826468E-01  -89.731216  4.433961E-05   45.557476  1.000000E+00    0.000000  1.000000E+00    0.000000
  0.040885750  9.837627E-01  -91.249138  4.790074E-05   76.418068  1.000000E+00    0.000000  1.000000E+00    0.000000
  0.041585500  9.829014E-01  -92.803543  8.667709E-05   81.915627  1.000000E+00    0.000000  1.000000E+00    0.000000
  0.042285250  9.824278E-01  -94.340523  7.180861E-05   62.231274  1.000000E+00    0.000000  1.000000E+00    0.000000
  0.042985000  9.823878E-01  -95.953644  4.594227E-05   64.075966  1.000000E+00    0.000000  1.000000E+00    0.000000
  0.043684750  9.828218E-01  -97.485947  6.000512E-05   80.217278  1.000000E+00    0.000000  1.000000E+00    0.000000
  0.044384500  9.826223E-01  -99.054855  6.737362E-05   86.203934  1.000000E+00    0.000000  1.000000E+00    0.000000
  0.045084250  9.826487E-01 -100.602577  5.752812E-05   79.477585  1.000000E+00    0.000000  1.000000E+00    0.000000
  0.045784000  9.821019E-01 -102.163506  6.757335E-05   99.999756  1.000000E+00    0.000000  1.000000E+00    0.000000
  0.046483750  9.821286E-01 -103.685020  5.703434E-05  100.829483  1.000000E+00    0.000000  1.000000E+00    0.000000
  0.047183500  9.829353E-01 -105.277573  5.214584E-05   83.189651  1.000000E+00    0.000000  1.000000E+00    0.000000
  0.047883250  9.818398E-01 -106.796227  5.974513E-05   82.044975  1.000000E+00    0.000000  1.000000E+00    0.000000
  0.048583000  9.811841E-01 -108.327347  3.020205E-05   85.567085  1.000000E+00    0.000000  1.000000E+00    0.000000
  0.049282750  9.818861E-01 -109.947235  6.542290E-05  134.701569  1.000000E+00    0.000000  1.000000E+00    0.000000
  0.049982500  9.884327E-01 -111.331902  7.729858E-05  124.766563  1.000000E+00    0.000000  1.000000E+00    0.000000
  0.050682250  9.883723E-01 -112.907913  1.181524E-05  128.409653  1.000000E+00    0.000000  1.000000E+00    0.000000
  0.051382000  9.883056E-01 -114.459953  5.624869E-05  141.292526  1.000000E+00    0.000000  1.000000E+00    0.000000
  0.052081750  9.878154E-01 -115.972145  5.991402E-05  104.880547  1.000000E+00    0.000000  1.000000E+00    0.000000
  0.052781500  9.861985E-01 -117.533295  8.527833E-05   97.725006  1.000000E+00    0.000000  1.000000E+00    0.000000
  0.053481250  9.873461E-01 -119.077271  5.888966E-05  157.956299  1.000000E+00    0.000000  1.000000E+00    0.000000
  0.054181000  9.851487E-01 -120.610847  5.248077E-05  113.958000  1.000000E+00    0.000000  1.000000E+00    0.000000
  0.054880750  9.849342E-01 -122.142822  5.028332E-05  150.534546  1.000000E+00    0.000000  1.000000E+00    0.000000
  0.055580500  9.840980E-01 -123.727211  4.236117E-05  145.848404  1.000000E+00    0.000000  1.000000E+00    0.000000
  0.056280250  9.831351E-01 -125.267868  8.972935E-05  179.893417  1.000000E+00    0.000000  1.000000E+00    0.000000
  0.056980000  9.822010E-01 -126.868622  2.794306E-05 -147.210205  1.000000E+00    0.000000  1.000000E+00    0.000000
  0.057679750  9.814083E-01 -128.366745  7.244082E-05  144.315186  1.000000E+00    0.000000  1.000000E+00    0.000000
  0.058379500  9.801252E-01 -129.940720  3.396101E-05 -172.720825  1.000000E+00    0.000000  1.000000E+00    0.000000
  0.059079250  9.787328E-01 -131.444443  5.467214E-05  170.428253  1.000000E+00    0.000000  1.000000E+00    0.000000
  0.059779000  9.774653E-01 -133.018295  8.300598E-05  156.560547  1.000000E+00    0.000000  1.000000E+00    0.000000
  0.060478750  9.770210E-01 -134.515610  1.064331E-05   52.012474  1.000000E+00    0.000000  1.000000E+00    0.000000
  0.061178500  9.763424E-01 -136.083023  3.124656E-05 -165.895004  1.000000E+00    0.000000  1.000000E+00    0.000000
  0.061878250  9.743308E-01 -137.629578  3.821032E-05 -179.108780  1.000000E+00    0.000000  1.000000E+00    0.000000
  0.062578000  9.731795E-01 -139.170639  4.419426E-05  139.419250  1.000000E+00    0.000000  1.000000E+00    0.000000
  0.063277750  9.720123E-01 -140.730606  4.192222E-05  169.415359  1.000000E+00    0.000000  1.000000E+00    0.000000
  0.063977500  9.714382E-01 -142.270905  5.388564E-05 -165.813095  1.000000E+00    0.000000  1.000000E+00    0.000000
  0.064677250  9.703277E-01 -143.790405  5.360068E-05  158.685333  1.000000E+00    0.000000  1.000000E+00    0.000000
  0.065377000  9.689561E-01 -145.379272  2.267483E-05  165.490051  1.000000E+00    0.000000  1.000000E+00    0.000000
  0.066076750  9.683860E-01 -146.922211  6.707953E-05 -156.711548  1.000000E+00    0.000000  1.000000E+00    0.000000
  0.066776500  9.673966E-01 -148.494537  3.289385E-05 -158.090622  1.000000E+00    0.000000  1.000000E+00    0.000000
  0.067476250  9.665789E-01 -150.047119  3.220520E-05 -132.053207  1.000000E+00    0.000000  1.000000E+00    0.000000
  0.068176000  9.659138E-01 -151.598923  9.100928E-05 -154.596634  1.000000E+00    0.000000  1.000000E+00    0.000000
  0.068875750  9.665626E-01 -153.125427  3.683043E-05 -144.368881  1.000000E+00    0.000000  1.000000E+00    0.000000
  0.069575500  9.648022E-01 -154.664047  4.844755E-05 -135.938324  1.000000E+00    0.000000  1.000000E+00    0.000000
  0.070275250  9.633980E-01 -156.193024  4.358024E-05 -136.295853  1.000000E+00    0.000000  1.000000E+00    0.000000
  0.070975000  9.632720E-01 -157.789108  1.394712E-05 -163.634003  1.000000E+00    0.000000  1.000000E+00    0.000000
  0.071674750  9.629467E-01 -159.341995  5.682589E-05 -149.437988  1.000000E+00    0.000000  1.000000E+00    0.000000
  0.072374500  9.626400E-01 -160.876068  5.073752E-05 -130.991913  1.000000E+00    0.000000  1.000000E+00    0.000000
  0.073074250  9.616233E-01 -162.429321  5.410928E-05 -135.957687  1.000000E+00    0.000000  1.000000E+00    0.000000
  0.073774000  9.618927E-01 -163.939682  3.551069E-05  168.642517  1.000000E+00    0.000000  1.000000E+00    0.000000
  0.074473750  9.609241E-01 -165.514420  5.427601E-05  -92.793716  1.000000E+00    0.000000  1.000000E+00    0.000000
  0.075173500  9.606038E-01 -167.053238  6.656156E-05  175.721909  1.000000E+00    0.000000  1.000000E+00    0.000000
  0.075873250  9.596094E-01 -168.564301  2.696154E-05 -110.233902  1.000000E+00    0.000000  1.000000E+00    0.000000
  0.076573000  9.599118E-01 -170.115616  5.032343E-05 -126.606544  1.000000E+00    0.000000  1.000000E+00    0.000000
  0.077272750  9.589391E-01 -171.639786  7.701037E-05 -158.310196  1.000000E+00    0.000000  1.000000E+00    0.000000
  0.077972500  9.585754E-01 -173.180191  7.608454E-05 -124.751892  1.000000E+00    0.000000  1.000000E+00    0.000000
  0.078672250  9.580708E-01 -174.691132  3.956463E-05 -125.954536  1.000000E+00    0.000000  1.000000E+00    0.000000
  0.079372000  9.577641E-01 -176.219498  3.109823E-05  -92.822647  1.000000E+00    0.000000  1.000000E+00    0.000000
  0.080071750  9.573158E-01 -177.777985  6.389149E-05  -90.096931  1.000000E+00    0.000000  1.000000E+00    0.000000
  0.080771500  9.569451E-01 -179.301636  3.600009E-05  -93.979362  1.000000E+00    0.000000  1.000000E+00    0.000000
  0.081471250  9.558635E-01  179.181915  4.712063E-05  -91.070549  1.000000E+00    0.000000  1.000000E+00    0.000000
  0.082171000  9.560749E-01  177.621170  3.843773E-05  -68.385849  1.000000E+00    0.000000  1.000000E+00    0.000000
  0.082870750  9.548266E-01  176.071457  5.223668E-05  -69.627083  1.000000E+00    0.000000  1.000000E+00    0.000000
  0.083570500  9.546119E-01  174.508118  4.989117E-05 -107.950592  1.000000E+00    0.000000  1.000000E+00    0.000000
  0.084270250  9.540051E-01  173.010284  3.889404E-05  -70.869949  1.000000E+00    0.000000  1.000000E+00    0.000000
  0.084970000  9.533519E-01  171.425446  5.789671E-05  -74.009369  1.000000E+00    0.000000  1.000000E+00    0.000000
  0.085669750  9.529199E-01  169.875107  5.909357E-05  -57.480858  1.000000E+00    0.000000  1.000000E+00    0.000000
  0.086369500  9.528449E-01  168.359619  1.559836E-05  -23.172960  1.000000E+00    0.000000  1.000000E+00    0.000000
  0.087069250  9.520844E-01  166.822083  6.630691E-05  -91.005539  1.000000E+00    0.000000  1.000000E+00    0.000000
  0.087769000  9.519590E-01  165.275299  6.732209E-05  -78.913422  1.000000E+00    0.000000  1.000000E+00    0.000000
  0.088468750  9.519051E-01  163.691742  1.952971E-05  -74.061150  1.000000E+00    0.000000  1.000000E+00    0.000000
  0.089168500  9.510712E-01  162.154755  7.618414E-05  -76.744232  1.000000E+00    0.000000  1.000000E+00    0.000000
  0.089868250  9.509022E-01  160.609894  3.739618E-05  -58.438805  1.000000E+00    0.000000  1.000000E+00    0.000000
  0.090568000  9.499845E-01  159.066589  3.971600E-05  -68.389816  1.000000E+00    0.000000  1.000000E+00    0.000000
  0.091267750  9.504091E-01  157.529099  7.079033E-05  -40.730255  1.000000E+00    0.000000  1.000000E+00    0.000000
  0.091967500  9.495603E-01  155.956802  3.571728E-05 -115.552467  1.000000E+00    0.000000  1.000000E+00    0.000000
  0.092667250  9.492143E-01  154.441895  6.231869E-05  -54.408413  1.000000E+00    0.000000  1.000000E+00    0.000000
  0.093367000  9.494627E-01  152.857147  3.199544E-05  -98.371780  1.000000E+00    0.000000  1.000000E+00    0.000000
  0.094066750  9.491346E-01  151.299789  4.517498E-05  -31.393763  1.000000E+00    0.000000  1.000000E+00    0.000000
  0.094766500  9.481395E-01  149.740341  5.736347E-05  -46.475357  1.000000E+00    0.000000  1.000000E+00    0.000000
  0.095466250  9.484856E-01  148.161972  5.809344E-05  -62.511524  1.000000E+00    0.000000  1.000000E+00    0.000000
  0.096166000  9.491393E-01  146.605057  7.369731E-05  -87.776100  1.000000E+00    0.000000  1.000000E+00    0.000000
  0.096865750  9.488865E-01  145.065720  3.903897E-05  -36.469753  1.000000E+00    0.000000  1.000000E+00    0.000000
  0.097565500  9.484754E-01  143.534088  4.393183E-05  -34.795406  1.000000E+00    0.000000  1.000000E+00    0.000000
  0.098265250  9.489141E-01  142.025253  3.167722E-05  -66.669243  1.000000E+00    0.000000  1.000000E+00    0.000000
  0.098965000  9.488922E-01  140.436478  3.152487E-05   -3.763141  1.000000E+00    0.000000  1.000000E+00    0.000000
  0.099664750  9.486069E-01  138.901337  2.851877E-05  -18.146145  1.000000E+00    0.000000  1.000000E+00    0.000000
  0.100364500  9.513168E-01  137.397018  4.391156E-05  -29.757004  1.000000E+00    0.000000  1.000000E+00    0.000000
  0.101064250  9.515047E-01  135.823074  4.483516E-05  -16.725414  1.000000E+00    0.000000  1.000000E+00    0.000000
  0.101764000  9.511757E-01  134.281845  6.834754E-05  -14.751026  1.000000E+00    0.000000  1.000000E+00    0.000000
  0.102463750  9.508160E-01  132.778183  2.641591E-05   45.382969  1.000000E+00    0.000000  1.000000E+00    0.000000
  0.103163500  9.498442E-01  131.257568  1.698514E-05    7.116222  1.000000E+00    0.000000  1.000000E+00    0.000000
  0.103863250  9.512716E-01  129.714981  2.824078E-05  -11.750119  1.000000E+00    0.000000  1.000000E+00    0.000000
  0.104563000  9.499393E-01  128.169189  3.217063E-05    4.696831  1.000000E+00    0.000000  1.000000E+00    0.000000
  0.105262750  9.509639E-01  126.732933  8.082407E-05    8.201683  1.000000E+00    0.000000  1.000000E+00    0.000000
  0.105962500  9.499642E-01  125.188118  2.964274E-05  -54.907394  1.000000E+00    0.000000  1.000000E+00    0.000000
  0.106662250  9.494784E-01  123.704506  3.520437E-05  -36.822666  1.000000E+00    0.000000  1.000000E+00    0.000000
  0.107362000  9.504230E-01  122.158058  1.785702E-05  -43.676029  1.000000E+00    0.000000  1.000000E+00    0.000000
  0.108061750  9.485358E-01  120.595093  1.848596E-05  -18.188484  1.000000E+00    0.000000  1.000000E+00    0.000000
  0.108761500  9.487262E-01  119.122040  2.530859E-05   15.722349  1.000000E+00    0.000000  1.000000E+00    0.000000
  0.109461250  9.483218E-01  117.594284  3.772673E-05   -8.282816  1.000000E+00    0.000000  1.000000E+00    0.000000
