! Anritsu VNA Master:                           Model: MS2025B
! SN:                                  1642059
! /bd0/PROE/TP1/FileName_49.s2p
! Existing Calibration Information:
! TYPE:                         Current Settings,       Active Cal Settings
! TIME:             	   04/16/2024 08:15:19 AM,    03/12/2018 11:45:53 AM
! INTERNAL TEMP:    	                   41.3 C,                    40.8 C
! # POINTS:         	                     4001,                      4001
! START FREQ:       	                1.000 MHz,                 1.000 MHz
! STOP FREQ:        	                2.800 GHz,                 2.800 GHz
! SOURCE POWER:     	                  Default,                   Default
! IFBW:             	                    1 kHz,                     1 kHz
! AVG FACTOR:       	                       1 ,                        1 
! REF PLANE 1:      	                     0 mm,                      0 mm
! REF PLANE 2:      	                     0 mm,                      0 mm
! CAL TYPE:         	             1P2P S11,S21,              1P2P S11,S21
! CAL METHOD:       	                     SOLT,                      SOLT
! CAL LINE TYPE:    	                     Coax,                      Coax
! DUT PORT 1:       	                         ,                          
! DUT PORT 2:       	                N-Conn(M),                 N-Conn(M)
! CAL STATUS:       	        OK: Accuracy High,                        --
# GHZ S MA R 50.0
! FREQ.GHZ       S11M         S11A         S21M         S21A         S12M         S12A         S22M         S22A
  0.001000000  9.963113E-01    0.047297  7.005129E-05 -132.034271  1.000000E+00    0.000000  1.000000E+00    0.000000
  0.001699750  9.956374E-01    0.097248  7.924475E-05  -65.207230  1.000000E+00    0.000000  1.000000E+00    0.000000
  0.002399500  9.953142E-01    0.088944  4.076651E-05  -82.211029  1.000000E+00    0.000000  1.000000E+00    0.000000
  0.003099250  9.952046E-01    0.065387  5.980153E-05  -51.975189  1.000000E+00    0.000000  1.000000E+00    0.000000
  0.003799000  9.958732E-01    0.036246  5.994129E-05  -59.455841  1.000000E+00    0.000000  1.000000E+00    0.000000
  0.004498750  9.957646E-01    0.060678  3.011631E-05  -62.437061  1.000000E+00    0.000000  1.000000E+00    0.000000
  0.005198500  9.954877E-01    0.107095  3.605950E-05  -89.973221  1.000000E+00    0.000000  1.000000E+00    0.000000
  0.005898250  9.959937E-01    0.106731  3.422604E-05  -38.075768  1.000000E+00    0.000000  1.000000E+00    0.000000
  0.006598000  9.960473E-01    0.123340  3.924567E-05  -56.217735  1.000000E+00    0.000000  1.000000E+00    0.000000
  0.007297750  9.966505E-01    0.151289  4.301588E-05  -42.668953  1.000000E+00    0.000000  1.000000E+00    0.000000
  0.007997500  9.956269E-01    0.111006  3.969238E-05  160.207687  1.000000E+00    0.000000  1.000000E+00    0.000000
  0.008697250  9.966256E-01    0.064077  1.919779E-05  -56.699722  1.000000E+00    0.000000  1.000000E+00    0.000000
  0.009397000  9.965686E-01    0.058894  2.582132E-05 -104.951767  1.000000E+00    0.000000  1.000000E+00    0.000000
  0.010096750  9.963088E-01    0.108337  1.064786E-04  -58.858929  1.000000E+00    0.000000  1.000000E+00    0.000000
  0.010796500  9.968215E-01    0.099687  6.742998E-05  -91.492790  1.000000E+00    0.000000  1.000000E+00    0.000000
  0.011496250  9.976827E-01    0.068030  6.859799E-06 -124.180626  1.000000E+00    0.000000  1.000000E+00    0.000000
  0.012196000  9.972446E-01    0.063794  8.347891E-05    4.309421  1.000000E+00    0.000000  1.000000E+00    0.000000
  0.012895750  9.973622E-01    0.087952  4.695900E-05    9.359915  1.000000E+00    0.000000  1.000000E+00    0.000000
  0.013595500  9.971405E-01    0.058338  6.593271E-05   14.383945  1.000000E+00    0.000000  1.000000E+00    0.000000
  0.014295250  9.975178E-01    0.075739  4.671483E-05  -12.878619  1.000000E+00    0.000000  1.000000E+00    0.000000
  0.014995000  9.976006E-01    0.100666  5.013857E-05  -40.926365  1.000000E+00    0.000000  1.000000E+00    0.000000
  0.015694750  9.973934E-01    0.096549  2.290479E-05  -54.524815  1.000000E+00    0.000000  1.000000E+00    0.000000
  0.016394500  9.967926E-01    0.062779  7.333879E-05  -13.435010  1.000000E+00    0.000000  1.000000E+00    0.000000
  0.017094250  9.978059E-01    0.076230  4.955795E-05   -6.846089  1.000000E+00    0.000000  1.000000E+00    0.000000
  0.017794000  9.976379E-01    0.137214  4.182093E-05    6.431800  1.000000E+00    0.000000  1.000000E+00    0.000000
  0.018493750  9.978317E-01    0.066844  1.404691E-05   20.445824  1.000000E+00    0.000000  1.000000E+00    0.000000
  0.019193500  9.976795E-01    0.057136  1.232871E-05  106.635368  1.000000E+00    0.000000  1.000000E+00    0.000000
  0.019893250  9.976565E-01    0.061568  4.903014E-05   18.943588  1.000000E+00    0.000000  1.000000E+00    0.000000
  0.020593000  9.984527E-01    0.108010  2.873948E-05  -69.096931  1.000000E+00    0.000000  1.000000E+00    0.000000
  0.021292750  9.968983E-01    0.093345  3.024212E-05   38.934742  1.000000E+00    0.000000  1.000000E+00    0.000000
  0.021992500  9.979393E-01    0.094957  6.601825E-05   -5.479250  1.000000E+00    0.000000  1.000000E+00    0.000000
  0.022692250  9.978841E-01    0.083964  3.629684E-05   28.223467  1.000000E+00    0.000000  1.000000E+00    0.000000
  0.023392000  9.972799E-01    0.077732  4.050626E-05  -15.386671  1.000000E+00    0.000000  1.000000E+00    0.000000
  0.024091750  9.976259E-01    0.075594  7.027971E-05   -3.099581  1.000000E+00    0.000000  1.000000E+00    0.000000
  0.024791500  9.977745E-01    0.058488  4.077570E-05   46.555653  1.000000E+00    0.000000  1.000000E+00    0.000000
  0.025491250  9.973038E-01    0.108057  8.964135E-05   17.109314  1.000000E+00    0.000000  1.000000E+00    0.000000
  0.026191000  9.976183E-01    0.091272  8.897155E-05   40.526764  1.000000E+00    0.000000  1.000000E+00    0.000000
  0.026890750  9.981095E-01    0.054153  7.022205E-05   20.983454  1.000000E+00    0.000000  1.000000E+00    0.000000
  0.027590500  9.970620E-01    0.081617  2.481914E-05   77.748528  1.000000E+00    0.000000  1.000000E+00    0.000000
  0.028290250  9.973646E-01    0.060666  4.358517E-05   14.471005  1.000000E+00    0.000000  1.000000E+00    0.000000
  0.028990000  9.980323E-01    0.042262  3.685573E-05   44.029964  1.000000E+00    0.000000  1.000000E+00    0.000000
  0.029689750  9.969722E-01    0.031416  6.231978E-05   11.282543  1.000000E+00    0.000000  1.000000E+00    0.000000
  0.030389500  9.975111E-01    0.084609  1.581103E-05   44.775532  1.000000E+00    0.000000  1.000000E+00    0.000000
  0.031089250  9.971400E-01    0.001758  8.077099E-05   55.202938  1.000000E+00    0.000000  1.000000E+00    0.000000
  0.031789000  9.975131E-01    0.023180  6.318767E-05   80.037125  1.000000E+00    0.000000  1.000000E+00    0.000000
  0.032488750  9.966744E-01    0.046767  8.947839E-05   45.983719  1.000000E+00    0.000000  1.000000E+00    0.000000
  0.033188500  9.966143E-01    0.051141  5.729838E-05   43.639534  1.000000E+00    0.000000  1.000000E+00    0.000000
  0.033888250  9.964956E-01    0.064747  5.613553E-05   77.297470  1.000000E+00    0.000000  1.000000E+00    0.000000
  0.034588000  9.966000E-01   -0.004075  6.577942E-05   69.456139  1.000000E+00    0.000000  1.000000E+00    0.000000
  0.035287750  9.956030E-01    0.005040  6.663546E-05   66.098869  1.000000E+00    0.000000  1.000000E+00    0.000000
  0.035987500  9.967260E-01    0.017016  5.860156E-05   84.197487  1.000000E+00    0.000000  1.000000E+00    0.000000
  0.036687250  9.967710E-01   -0.013772  6.640791E-05   65.933807  1.000000E+00    0.000000  1.000000E+00    0.000000
  0.037387000  9.961440E-01   -0.015584  6.803415E-05   74.744942  1.000000E+00    0.000000  1.000000E+00    0.000000
  0.038086750  9.969240E-01   -0.021387  7.893523E-05   50.322811  1.000000E+00    0.000000  1.000000E+00    0.000000
  0.038786500  9.963180E-01   -0.010728  5.897844E-05  101.894051  1.000000E+00    0.000000  1.000000E+00    0.000000
  0.039486250  9.967760E-01   -0.024173  9.705305E-05   65.441818  1.000000E+00    0.000000  1.000000E+00    0.000000
  0.040186000  9.966363E-01   -0.045599  1.091787E-04  114.194847  1.000000E+00    0.000000  1.000000E+00    0.000000
  0.040885750  9.975911E-01   -0.028923  7.889260E-05   88.712975  1.000000E+00    0.000000  1.000000E+00    0.000000
  0.041585500  9.968500E-01    0.008099  3.484780E-05   83.392082  1.000000E+00    0.000000  1.000000E+00    0.000000
  0.042285250  9.968745E-01   -0.053644  6.465009E-05   65.066391  1.000000E+00    0.000000  1.000000E+00    0.000000
  0.042985000  9.969971E-01   -0.086959  7.497452E-05   65.058670  1.000000E+00    0.000000  1.000000E+00    0.000000
  0.043684750  9.969144E-01   -0.048229  5.568274E-05  119.907402  1.000000E+00    0.000000  1.000000E+00    0.000000
  0.044384500  9.969428E-01   -0.071657  9.512512E-05   95.332680  1.000000E+00    0.000000  1.000000E+00    0.000000
  0.045084250  9.965000E-01   -0.081098  8.265932E-05   74.907692  1.000000E+00    0.000000  1.000000E+00    0.000000
  0.045784000  9.965225E-01   -0.055440  8.818933E-05   89.292221  1.000000E+00    0.000000  1.000000E+00    0.000000
  0.046483750  9.965600E-01   -0.078346  8.176551E-05  131.437195  1.000000E+00    0.000000  1.000000E+00    0.000000
  0.047183500  9.972406E-01   -0.060405  6.482106E-05  114.445068  1.000000E+00    0.000000  1.000000E+00    0.000000
  0.047883250  9.966021E-01   -0.118419  9.151812E-05   75.649651  1.000000E+00    0.000000  1.000000E+00    0.000000
  0.048583000  9.966617E-01   -0.106938  6.575182E-05  111.401955  1.000000E+00    0.000000  1.000000E+00    0.000000
  0.049282750  9.965432E-01   -0.088303  5.641317E-05   74.937958  1.000000E+00    0.000000  1.000000E+00    0.000000
  0.049982500  9.981230E-01   -0.140957  9.445663E-05  106.414970  1.000000E+00    0.000000  1.000000E+00    0.000000
  0.050682250  9.982861E-01   -0.143021  7.769671E-05  143.080887  1.000000E+00    0.000000  1.000000E+00    0.000000
  0.051382000  9.982846E-01   -0.154807  1.187700E-04  148.185593  1.000000E+00    0.000000  1.000000E+00    0.000000
  0.052081750  9.981493E-01   -0.146048  7.007961E-05  132.957993  1.000000E+00    0.000000  1.000000E+00    0.000000
  0.052781500  9.965817E-01   -0.193133  1.415551E-04  138.220078  1.000000E+00    0.000000  1.000000E+00    0.000000
  0.053481250  9.977836E-01   -0.131424  8.260678E-05  149.641174  1.000000E+00    0.000000  1.000000E+00    0.000000
  0.054181000  9.974689E-01   -0.159413  6.955235E-05  102.784103  1.000000E+00    0.000000  1.000000E+00    0.000000
  0.054880750  9.976586E-01   -0.173709  8.074489E-05  135.823975  1.000000E+00    0.000000  1.000000E+00    0.000000
  0.055580500  9.966803E-01   -0.168127  6.590592E-05  102.407631  1.000000E+00    0.000000  1.000000E+00    0.000000
  0.056280250  9.978170E-01   -0.243813  8.233252E-05  157.083344  1.000000E+00    0.000000  1.000000E+00    0.000000
  0.056980000  9.982871E-01   -0.183956  1.107485E-04  172.836227  1.000000E+00    0.000000  1.000000E+00    0.000000
  0.057679750  9.983746E-01   -0.191994  1.677565E-05  108.018707  1.000000E+00    0.000000  1.000000E+00    0.000000
  0.058379500  9.979582E-01   -0.231160  5.744868E-05  160.817062  1.000000E+00    0.000000  1.000000E+00    0.000000
  0.059079250  9.977629E-01   -0.212320  5.216792E-05  153.544434  1.000000E+00    0.000000  1.000000E+00    0.000000
  0.059779000  9.976117E-01   -0.252636  3.738820E-05 -172.013885  1.000000E+00    0.000000  1.000000E+00    0.000000
  0.060478750  9.979389E-01   -0.197798  7.099943E-05  172.087631  1.000000E+00    0.000000  1.000000E+00    0.000000
  0.061178500  9.978458E-01   -0.212211  9.794167E-05  146.684052  1.000000E+00    0.000000  1.000000E+00    0.000000
  0.061878250  9.972872E-01   -0.258796  2.566908E-05  169.858215  1.000000E+00    0.000000  1.000000E+00    0.000000
  0.062578000  9.972475E-01   -0.190458  1.142550E-04 -165.468491  1.000000E+00    0.000000  1.000000E+00    0.000000
  0.063277750  9.974504E-01   -0.296436  7.156088E-05  130.097336  1.000000E+00    0.000000  1.000000E+00    0.000000
  0.063977500  9.976315E-01   -0.250814  8.932887E-05  172.450287  1.000000E+00    0.000000  1.000000E+00    0.000000
  0.064677250  9.975739E-01   -0.291658  9.144035E-05  155.335999  1.000000E+00    0.000000  1.000000E+00    0.000000
  0.065377000  9.970655E-01   -0.298280  9.643210E-05 -172.533264  1.000000E+00    0.000000  1.000000E+00    0.000000
  0.066076750  9.971102E-01   -0.283555  7.700259E-05  171.692490  1.000000E+00    0.000000  1.000000E+00    0.000000
  0.066776500  9.972225E-01   -0.274930  9.461804E-05  161.064423  1.000000E+00    0.000000  1.000000E+00    0.000000
  0.067476250  9.971929E-01   -0.322964  6.221198E-05 -151.234100  1.000000E+00    0.000000  1.000000E+00    0.000000
  0.068176000  9.970356E-01   -0.276457  1.231609E-04  177.016586  1.000000E+00    0.000000  1.000000E+00    0.000000
  0.068875750  9.974592E-01   -0.295199  6.615699E-05 -168.688004  1.000000E+00    0.000000  1.000000E+00    0.000000
  0.069575500  9.978302E-01   -0.282775  8.344517E-05 -169.460602  1.000000E+00    0.000000  1.000000E+00    0.000000
  0.070275250  9.972324E-01   -0.318294  3.862104E-06 -143.730850  1.000000E+00    0.000000  1.000000E+00    0.000000
  0.070975000  9.974162E-01   -0.305781  5.128685E-05  167.656616  1.000000E+00    0.000000  1.000000E+00    0.000000
  0.071674750  9.971869E-01   -0.313153  6.068437E-05 -122.946564  1.000000E+00    0.000000  1.000000E+00    0.000000
  0.072374500  9.978467E-01   -0.331111  6.966470E-05 -139.958221  1.000000E+00    0.000000  1.000000E+00    0.000000
  0.073074250  9.970052E-01   -0.316054  4.373943E-05 -117.023979  1.000000E+00    0.000000  1.000000E+00    0.000000
  0.073774000  9.979792E-01   -0.294842  3.145608E-05 -113.012924  1.000000E+00    0.000000  1.000000E+00    0.000000
  0.074473750  9.976055E-01   -0.329319  5.266750E-05 -109.254974  1.000000E+00    0.000000  1.000000E+00    0.000000
  0.075173500  9.973316E-01   -0.309870  4.445295E-05 -161.991348  1.000000E+00    0.000000  1.000000E+00    0.000000
  0.075873250  9.972921E-01   -0.335371  6.172357E-05 -131.692429  1.000000E+00    0.000000  1.000000E+00    0.000000
  0.076573000  9.980603E-01   -0.327998  5.812546E-05 -125.379707  1.000000E+00    0.000000  1.000000E+00    0.000000
  0.077272750  9.975512E-01   -0.316167  2.614414E-05 -129.389832  1.000000E+00    0.000000  1.000000E+00    0.000000
  0.077972500  9.976989E-01   -0.333413  6.738014E-05 -140.517014  1.000000E+00    0.000000  1.000000E+00    0.000000
  0.078672250  9.980667E-01   -0.340365  3.624869E-05 -111.255936  1.000000E+00    0.000000  1.000000E+00    0.000000
  0.079372000  9.978616E-01   -0.358676  4.267804E-05  -68.151772  1.000000E+00    0.000000  1.000000E+00    0.000000
  0.080071750  9.969398E-01   -0.341985  4.813387E-05 -107.422218  1.000000E+00    0.000000  1.000000E+00    0.000000
  0.080771500  9.974502E-01   -0.336283  4.676258E-05 -102.940285  1.000000E+00    0.000000  1.000000E+00    0.000000
  0.081471250  9.970170E-01   -0.363024  7.161942E-05 -142.265121  1.000000E+00    0.000000  1.000000E+00    0.000000
  0.082171000  9.977180E-01   -0.325040  3.814325E-05 -150.326294  1.000000E+00    0.000000  1.000000E+00    0.000000
  0.082870750  9.980748E-01   -0.331863  5.693562E-05  -92.454185  1.000000E+00    0.000000  1.000000E+00    0.000000
  0.083570500  9.974588E-01   -0.360922  2.603622E-05 -100.336182  1.000000E+00    0.000000  1.000000E+00    0.000000
  0.084270250  9.974558E-01   -0.322662  4.603003E-05 -112.599968  1.000000E+00    0.000000  1.000000E+00    0.000000
  0.084970000  9.977999E-01   -0.353346  5.642389E-05  -99.619034  1.000000E+00    0.000000  1.000000E+00    0.000000
  0.085669750  9.975877E-01   -0.321306  3.404833E-05  -10.320187  1.000000E+00    0.000000  1.000000E+00    0.000000
  0.086369500  9.972612E-01   -0.336949  5.480283E-05  -97.351006  1.000000E+00    0.000000  1.000000E+00    0.000000
  0.087069250  9.972957E-01   -0.360447  1.922265E-06  -63.330093  1.000000E+00    0.000000  1.000000E+00    0.000000
  0.087769000  9.977162E-01   -0.346116  3.818992E-05  -55.633163  1.000000E+00    0.000000  1.000000E+00    0.000000
  0.088468750  9.974381E-01   -0.363434  6.420309E-06  -34.009682  1.000000E+00    0.000000  1.000000E+00    0.000000
  0.089168500  9.977302E-01   -0.316086  5.355289E-05  -71.547356  1.000000E+00    0.000000  1.000000E+00    0.000000
  0.089868250  9.976848E-01   -0.342122  4.941584E-05  -37.632591  1.000000E+00    0.000000  1.000000E+00    0.000000
  0.090568000  9.973181E-01   -0.315836  4.021857E-05  -41.230595  1.000000E+00    0.000000  1.000000E+00    0.000000
  0.091267750  9.977421E-01   -0.325350  3.752501E-05  -41.764915  1.000000E+00    0.000000  1.000000E+00    0.000000
  0.091967500  9.975327E-01   -0.310915  1.508461E-05 -177.435211  1.000000E+00    0.000000  1.000000E+00    0.000000
  0.092667250  9.972250E-01   -0.324878  3.088589E-05  -64.577904  1.000000E+00    0.000000  1.000000E+00    0.000000
  0.093367000  9.978142E-01   -0.306300  1.774026E-05 -104.928368  1.000000E+00    0.000000  1.000000E+00    0.000000
  0.094066750  9.975179E-01   -0.333507  4.049171E-05  -46.978291  1.000000E+00    0.000000  1.000000E+00    0.000000
  0.094766500  9.973668E-01   -0.351464  3.998361E-05  -32.132595  1.000000E+00    0.000000  1.000000E+00    0.000000
  0.095466250  9.971730E-01   -0.314608  3.222977E-05  -37.590714  1.000000E+00    0.000000  1.000000E+00    0.000000
  0.096166000  9.978606E-01   -0.309589  2.440725E-05  -18.292255  1.000000E+00    0.000000  1.000000E+00    0.000000
  0.096865750  9.971534E-01   -0.273453  2.820892E-05  -55.686878  1.000000E+00    0.000000  1.000000E+00    0.000000
  0.097565500  9.969348E-01   -0.300857  1.379004E-05   -9.406775  1.000000E+00    0.000000  1.000000E+00    0.000000
  0.098265250  9.977797E-01   -0.321214  3.367879E-05  -42.026993  1.000000E+00    0.000000  1.000000E+00    0.000000
  0.098965000  9.978973E-01   -0.284478  2.720863E-05  -10.915017  1.000000E+00    0.000000  1.000000E+00    0.000000
  0.099664750  9.976479E-01   -0.280063  1.773019E-05  -28.016001  1.000000E+00    0.000000  1.000000E+00    0.000000
  0.100364500  9.974113E-01   -0.295817  1.947562E-05  -57.702232  1.000000E+00    0.000000  1.000000E+00    0.000000
  0.101064250  9.970403E-01   -0.284693  2.407972E-05  -41.886509  1.000000E+00    0.000000  1.000000E+00    0.000000
  0.101764000  9.971364E-01   -0.261673  2.416668E-05    7.118594  1.000000E+00    0.000000  1.000000E+00    0.000000
  0.102463750  9.968556E-01   -0.288324  1.359355E-05  -33.843372  1.000000E+00    0.000000  1.000000E+00    0.000000
  0.103163500  9.972153E-01   -0.247492  4.409820E-05   24.891378  1.000000E+00    0.000000  1.000000E+00    0.000000
  0.103863250  9.972399E-01   -0.242737  3.313729E-05   13.713891  1.000000E+00    0.000000  1.000000E+00    0.000000
  0.104563000  9.967642E-01   -0.283462  3.384140E-05   14.001858  1.000000E+00    0.000000  1.000000E+00    0.000000
  0.105262750  9.974223E-01   -0.233564  4.864281E-05   35.485935  1.000000E+00    0.000000  1.000000E+00    0.000000
  0.105962500  9.970155E-01   -0.237135  4.394684E-05   12.008128  1.000000E+00    0.000000  1.000000E+00    0.000000
  0.106662250  9.974040E-01   -0.230274  2.856650E-05   12.754702  1.000000E+00    0.000000  1.000000E+00    0.000000
  0.107362000  9.972985E-01   -0.236799  3.510909E-05   12.391491  1.000000E+00    0.000000  1.000000E+00    0.000000
  0.108061750  9.970199E-01   -0.228317  5.497638E-05   39.516918  1.000000E+00    0.000000  1.000000E+00    0.000000
  0.108761500  9.968648E-01   -0.176895  1.933311E-05   -6.019757  1.000000E+00    0.000000  1.000000E+00    0.000000
  0.109461250  9.967582E-01   -0.200864  3.446788E-05   22.564089  1.000000E+00    0.000000  1.000000E+00    0.000000
