! Anritsu VNA Master:                           Model: MS2025B
! SN:                                  1642059
! /bd0/PROE/TP1/GCPW_OC.s2p
! Existing Calibration Information:
! TYPE:                         Current Settings,       Active Cal Settings
! TIME:             	   04/16/2024 09:08:44 AM,    03/12/2018 11:45:53 AM
! INTERNAL TEMP:    	                   43.0 C,                    40.8 C
! # POINTS:         	                     2857,                      4001
! START FREQ:       	                1.000 MHz,                 1.000 MHz
! STOP FREQ:        	            1.999 486 GHz,                 2.800 GHz
! SOURCE POWER:     	                  Default,                   Default
! IFBW:             	                    1 kHz,                     1 kHz
! AVG FACTOR:       	                       1 ,                        1 
! REF PLANE 1:      	                     0 mm,                      0 mm
! REF PLANE 2:      	                     0 mm,                      0 mm
! CAL TYPE:         	             1P2P S11,S21,              1P2P S11,S21
! CAL METHOD:       	                     SOLT,                      SOLT
! CAL LINE TYPE:    	                     Coax,                      Coax
! DUT PORT 1:       	                         ,                          
! DUT PORT 2:       	                N-Conn(M),                 N-Conn(M)
! CAL STATUS:       	        OK: Accuracy High,                        --
# GHZ S MA R 50.0
! FREQ.GHZ       S11M         S11A         S21M         S21A         S12M         S12A         S22M         S22A
  0.001000000  9.957666E-01   -0.830512  6.875525E-05 -101.783165  1.000000E+00    0.000000  1.000000E+00    0.000000
  0.001699750  9.917848E-01   -1.717875  4.558441E-05  -70.755928  1.000000E+00    0.000000  1.000000E+00    0.000000
  0.002399500  9.895205E-01   -2.645396  5.424982E-05  -21.782328  1.000000E+00    0.000000  1.000000E+00    0.000000
  0.003099250  9.882532E-01   -3.545214  3.758150E-05  -39.710003  1.000000E+00    0.000000  1.000000E+00    0.000000
  0.003799000  9.911801E-01   -4.461245  1.219410E-05   -5.032187  1.000000E+00    0.000000  1.000000E+00    0.000000
  0.004498750  9.882089E-01   -5.343804  4.001365E-05  -56.090714  1.000000E+00    0.000000  1.000000E+00    0.000000
  0.005198500  9.875965E-01   -6.238588  2.994529E-05  -84.390686  1.000000E+00    0.000000  1.000000E+00    0.000000
  0.005898250  9.890125E-01   -7.124205  2.870603E-05  -42.476959  1.000000E+00    0.000000  1.000000E+00    0.000000
  0.006598000  9.886496E-01   -8.006295  3.964841E-05  -13.764377  1.000000E+00    0.000000  1.000000E+00    0.000000
  0.007297750  9.874709E-01   -8.850963  1.184285E-05 -162.581818  1.000000E+00    0.000000  1.000000E+00    0.000000
  0.007997500  9.865866E-01   -9.761788  4.518557E-05 -121.104210  1.000000E+00    0.000000  1.000000E+00    0.000000
  0.008697250  9.871143E-01  -10.684396  3.926475E-05  -50.554535  1.000000E+00    0.000000  1.000000E+00    0.000000
  0.009397000  9.888884E-01  -11.590381  1.049324E-05  170.696060  1.000000E+00    0.000000  1.000000E+00    0.000000
  0.010096750  9.886799E-01  -12.456346  5.447097E-05  -47.084522  1.000000E+00    0.000000  1.000000E+00    0.000000
  0.010796500  9.884843E-01  -13.285137  5.083881E-05  -87.515022  1.000000E+00    0.000000  1.000000E+00    0.000000
  0.011496250  9.896560E-01  -14.197735  2.054705E-05   12.829461  1.000000E+00    0.000000  1.000000E+00    0.000000
  0.012196000  9.890342E-01  -15.086987  2.354168E-05   22.088602  1.000000E+00    0.000000  1.000000E+00    0.000000
  0.012895750  9.888428E-01  -15.961846  6.701051E-05  -80.658287  1.000000E+00    0.000000  1.000000E+00    0.000000
  0.013595500  9.888228E-01  -16.820505  5.606478E-05  -75.832367  1.000000E+00    0.000000  1.000000E+00    0.000000
  0.014295250  9.898666E-01  -17.610455  5.474511E-05  -30.866257  1.000000E+00    0.000000  1.000000E+00    0.000000
  0.014995000  9.886863E-01  -18.509607  3.491723E-05   65.289818  1.000000E+00    0.000000  1.000000E+00    0.000000
  0.015694750  9.884057E-01  -19.345070  4.025927E-05   11.347332  1.000000E+00    0.000000  1.000000E+00    0.000000
  0.016394500  9.878869E-01  -20.237421  1.889509E-05   34.412849  1.000000E+00    0.000000  1.000000E+00    0.000000
  0.017094250  9.879506E-01  -21.118521  2.773235E-05  -81.095383  1.000000E+00    0.000000  1.000000E+00    0.000000
  0.017794000  9.878755E-01  -21.988886  4.381730E-05   62.463993  1.000000E+00    0.000000  1.000000E+00    0.000000
  0.018493750  9.879555E-01  -22.823143  1.414779E-05  -64.042053  1.000000E+00    0.000000  1.000000E+00    0.000000
  0.019193500  9.875546E-01  -23.704729  4.164964E-05   12.670310  1.000000E+00    0.000000  1.000000E+00    0.000000
  0.019893250  9.863284E-01  -24.516615  1.982207E-05   20.310839  1.000000E+00    0.000000  1.000000E+00    0.000000
  0.020593000  9.872105E-01  -25.413410  5.226236E-05    0.496426  1.000000E+00    0.000000  1.000000E+00    0.000000
  0.021292750  9.860834E-01  -26.225607  1.683996E-05   -3.474725  1.000000E+00    0.000000  1.000000E+00    0.000000
  0.021992500  9.857199E-01  -27.078999  2.639800E-05  -63.872234  1.000000E+00    0.000000  1.000000E+00    0.000000
  0.022692250  9.846584E-01  -27.906122  3.546321E-05   44.289276  1.000000E+00    0.000000  1.000000E+00    0.000000
  0.023392000  9.850314E-01  -28.777601  1.857696E-05  -66.622612  1.000000E+00    0.000000  1.000000E+00    0.000000
  0.024091750  9.848251E-01  -29.650776  6.077110E-05   56.198750  1.000000E+00    0.000000  1.000000E+00    0.000000
  0.024791500  9.848405E-01  -30.450701  6.579817E-05   23.319561  1.000000E+00    0.000000  1.000000E+00    0.000000
  0.025491250  9.892292E-01  -31.115299  8.972512E-05   39.902962  1.000000E+00    0.000000  1.000000E+00    0.000000
  0.026191000  9.888737E-01  -32.013378  3.970828E-05   54.844025  1.000000E+00    0.000000  1.000000E+00    0.000000
  0.026890750  9.885811E-01  -32.909317  5.777846E-05   32.408638  1.000000E+00    0.000000  1.000000E+00    0.000000
  0.027590500  9.875454E-01  -33.770458  7.830909E-05    7.510341  1.000000E+00    0.000000  1.000000E+00    0.000000
  0.028290250  9.875602E-01  -34.691616  7.538840E-05   -9.214869  1.000000E+00    0.000000  1.000000E+00    0.000000
  0.028990000  9.867753E-01  -35.550774  7.883099E-05    6.464931  1.000000E+00    0.000000  1.000000E+00    0.000000
  0.029689750  9.852675E-01  -36.397518  9.032212E-05   69.629684  1.000000E+00    0.000000  1.000000E+00    0.000000
  0.030389500  9.854000E-01  -37.230820  6.153735E-05   51.597729  1.000000E+00    0.000000  1.000000E+00    0.000000
  0.031089250  9.837676E-01  -38.143608  5.294634E-05   40.186089  1.000000E+00    0.000000  1.000000E+00    0.000000
  0.031789000  9.830357E-01  -38.954987  3.729730E-05   34.599369  1.000000E+00    0.000000  1.000000E+00    0.000000
  0.032488750  9.823938E-01  -39.780586  8.376714E-05   44.431698  1.000000E+00    0.000000  1.000000E+00    0.000000
  0.033188500  9.815463E-01  -40.616680  9.974479E-05   31.610546  1.000000E+00    0.000000  1.000000E+00    0.000000
  0.033888250  9.807315E-01  -41.439781  6.229479E-05   52.876949  1.000000E+00    0.000000  1.000000E+00    0.000000
  0.034588000  9.796897E-01  -42.294437  7.630920E-05   46.060947  1.000000E+00    0.000000  1.000000E+00    0.000000
  0.035287750  9.787378E-01  -43.143795  5.098887E-05   74.909233  1.000000E+00    0.000000  1.000000E+00    0.000000
  0.035987500  9.786279E-01  -43.976395  8.952179E-05   34.412834  1.000000E+00    0.000000  1.000000E+00    0.000000
  0.036687250  9.777474E-01  -44.809639  8.962468E-05   47.093971  1.000000E+00    0.000000  1.000000E+00    0.000000
  0.037387000  9.771889E-01  -45.642021  2.734531E-05    1.220955  1.000000E+00    0.000000  1.000000E+00    0.000000
  0.038086750  9.770878E-01  -46.476540  5.551190E-05   71.044968  1.000000E+00    0.000000  1.000000E+00    0.000000
  0.038786500  9.764496E-01  -47.321373  6.007061E-05   40.377136  1.000000E+00    0.000000  1.000000E+00    0.000000
  0.039486250  9.758894E-01  -48.160450  4.541794E-05  136.796219  1.000000E+00    0.000000  1.000000E+00    0.000000
  0.040186000  9.755993E-01  -48.964638  5.476512E-05   50.578999  1.000000E+00    0.000000  1.000000E+00    0.000000
  0.040885750  9.760427E-01  -49.808861  5.416648E-05   51.531391  1.000000E+00    0.000000  1.000000E+00    0.000000
  0.041585500  9.744345E-01  -50.591732  7.206371E-05   82.533005  1.000000E+00    0.000000  1.000000E+00    0.000000
  0.042285250  9.741488E-01  -51.471874  2.718781E-05  161.956757  1.000000E+00    0.000000  1.000000E+00    0.000000
  0.042985000  9.746765E-01  -52.286259  5.536489E-05   86.594139  1.000000E+00    0.000000  1.000000E+00    0.000000
  0.043684750  9.744296E-01  -53.080967  4.630596E-05   89.719032  1.000000E+00    0.000000  1.000000E+00    0.000000
  0.044384500  9.745816E-01  -53.912872  6.844248E-05  106.930206  1.000000E+00    0.000000  1.000000E+00    0.000000
  0.045084250  9.745505E-01  -54.737633  8.124194E-05  120.086456  1.000000E+00    0.000000  1.000000E+00    0.000000
  0.045784000  9.740237E-01  -55.498295  7.443254E-05   88.593079  1.000000E+00    0.000000  1.000000E+00    0.000000
  0.046483750  9.739502E-01  -56.334702  5.693955E-05  107.456482  1.000000E+00    0.000000  1.000000E+00    0.000000
  0.047183500  9.747832E-01  -57.146847  6.228543E-05   75.804436  1.000000E+00    0.000000  1.000000E+00    0.000000
  0.047883250  9.748437E-01  -57.971470  6.794857E-05  117.264252  1.000000E+00    0.000000  1.000000E+00    0.000000
  0.048583000  9.741935E-01  -58.756165  4.224697E-05   76.131447  1.000000E+00    0.000000  1.000000E+00    0.000000
  0.049282750  9.750155E-01  -59.601959  6.401035E-05   85.588448  1.000000E+00    0.000000  1.000000E+00    0.000000
  0.049982500  9.813921E-01  -60.275955  7.333132E-05  121.490921  1.000000E+00    0.000000  1.000000E+00    0.000000
  0.050682250  9.822900E-01  -61.060314  1.018141E-04  134.178253  1.000000E+00    0.000000  1.000000E+00    0.000000
  0.051382000  9.823622E-01  -61.890694  7.648846E-05  137.826767  1.000000E+00    0.000000  1.000000E+00    0.000000
  0.052081750  9.819523E-01  -62.669266  7.431433E-05  107.680969  1.000000E+00    0.000000  1.000000E+00    0.000000
  0.052781500  9.812914E-01  -63.461765  6.906425E-05  114.605003  1.000000E+00    0.000000  1.000000E+00    0.000000
  0.053481250  9.818320E-01  -64.240952  7.811900E-05  142.647629  1.000000E+00    0.000000  1.000000E+00    0.000000
  0.054181000  9.813986E-01  -64.981194  7.113896E-05  152.633682  1.000000E+00    0.000000  1.000000E+00    0.000000
  0.054880750  9.820108E-01  -65.788345  7.556875E-05  162.652710  1.000000E+00    0.000000  1.000000E+00    0.000000
  0.055580500  9.813238E-01  -66.548820  8.543964E-05  144.540390  1.000000E+00    0.000000  1.000000E+00    0.000000
  0.056280250  9.815608E-01  -67.372375  4.825155E-05  119.177719  1.000000E+00    0.000000  1.000000E+00    0.000000
  0.056980000  9.812222E-01  -68.117615  9.952040E-05  169.050720  1.000000E+00    0.000000  1.000000E+00    0.000000
  0.057679750  9.804909E-01  -68.853867  8.403377E-05  139.336304  1.000000E+00    0.000000  1.000000E+00    0.000000
  0.058379500  9.798207E-01  -69.653023  7.665218E-05  169.382797  1.000000E+00    0.000000  1.000000E+00    0.000000
  0.059079250  9.791821E-01  -70.384171  5.991016E-05  174.155136  1.000000E+00    0.000000  1.000000E+00    0.000000
  0.059779000  9.777193E-01  -71.163620  5.411393E-05  156.222946  1.000000E+00    0.000000  1.000000E+00    0.000000
  0.060478750  9.776915E-01  -71.841774  9.560960E-05  174.712753  1.000000E+00    0.000000  1.000000E+00    0.000000
  0.061178500  9.777455E-01  -72.664948  7.110233E-05  173.028214  1.000000E+00    0.000000  1.000000E+00    0.000000
  0.061878250  9.765658E-01  -73.420540  6.296630E-05  169.043777  1.000000E+00    0.000000  1.000000E+00    0.000000
  0.062578000  9.756433E-01  -74.111259  3.693024E-05 -164.482605  1.000000E+00    0.000000  1.000000E+00    0.000000
  0.063277750  9.754656E-01  -74.921364  9.508324E-05  153.220123  1.000000E+00    0.000000  1.000000E+00    0.000000
  0.063977500  9.752771E-01  -75.581596  2.594787E-05 -133.660217  1.000000E+00    0.000000  1.000000E+00    0.000000
  0.064677250  9.739427E-01  -76.365189  7.575280E-05  169.133972  1.000000E+00    0.000000  1.000000E+00    0.000000
  0.065377000  9.730312E-01  -77.100502  6.122539E-05  179.728226  1.000000E+00    0.000000  1.000000E+00    0.000000
  0.066076750  9.724766E-01  -77.846077  6.099209E-05  144.580948  1.000000E+00    0.000000  1.000000E+00    0.000000
  0.066776500  9.716678E-01  -78.614326  6.971205E-05  160.111328  1.000000E+00    0.000000  1.000000E+00    0.000000
  0.067476250  9.712567E-01  -79.312309  4.898811E-05 -141.579926  1.000000E+00    0.000000  1.000000E+00    0.000000
  0.068176000  9.708535E-01  -80.050392  5.563767E-05 -169.373520  1.000000E+00    0.000000  1.000000E+00    0.000000
  0.068875750  9.706481E-01  -80.771614  5.833702E-05 -169.642380  1.000000E+00    0.000000  1.000000E+00    0.000000
  0.069575500  9.700308E-01  -81.457809  8.201231E-05 -169.038498  1.000000E+00    0.000000  1.000000E+00    0.000000
  0.070275250  9.678448E-01  -82.169029  4.350158E-05 -133.488007  1.000000E+00    0.000000  1.000000E+00    0.000000
  0.070975000  9.679000E-01  -82.930168  4.742561E-05 -138.914139  1.000000E+00    0.000000  1.000000E+00    0.000000
  0.071674750  9.672682E-01  -83.660286  6.825947E-05 -167.502533  1.000000E+00    0.000000  1.000000E+00    0.000000
  0.072374500  9.666029E-01  -84.408676  1.805603E-05 -175.975021  1.000000E+00    0.000000  1.000000E+00    0.000000
  0.073074250  9.659699E-01  -85.157585  4.886014E-05 -107.357635  1.000000E+00    0.000000  1.000000E+00    0.000000
  0.073774000  9.654294E-01  -85.857346  4.666833E-05 -145.107483  1.000000E+00    0.000000  1.000000E+00    0.000000
  0.074473750  9.649057E-01  -86.629852  6.873600E-05 -133.864761  1.000000E+00    0.000000  1.000000E+00    0.000000
  0.075173500  9.638552E-01  -87.299744  5.328220E-05 -120.253761  1.000000E+00    0.000000  1.000000E+00    0.000000
  0.075873250  9.631858E-01  -88.067581  1.731066E-05  -86.512604  1.000000E+00    0.000000  1.000000E+00    0.000000
  0.076573000  9.631060E-01  -88.783836  4.620858E-05 -128.008575  1.000000E+00    0.000000  1.000000E+00    0.000000
  0.077272750  9.629651E-01  -89.510719  2.145587E-05 -155.028305  1.000000E+00    0.000000  1.000000E+00    0.000000
  0.077972500  9.622563E-01  -90.277527  3.530771E-05 -147.188370  1.000000E+00    0.000000  1.000000E+00    0.000000
  0.078672250  9.621766E-01  -90.996483  2.230122E-05 -158.190552  1.000000E+00    0.000000  1.000000E+00    0.000000
  0.079372000  9.612756E-01  -91.719032  4.033683E-05 -137.605804  1.000000E+00    0.000000  1.000000E+00    0.000000
  0.080071750  9.611360E-01  -92.405678  3.616532E-05  -72.693459  1.000000E+00    0.000000  1.000000E+00    0.000000
  0.080771500  9.610211E-01  -93.126144  3.582729E-05 -122.539658  1.000000E+00    0.000000  1.000000E+00    0.000000
  0.081471250  9.595223E-01  -93.851700  3.992995E-05 -139.840179  1.000000E+00    0.000000  1.000000E+00    0.000000
  0.082171000  9.603400E-01  -94.594475  4.725982E-05  -83.021378  1.000000E+00    0.000000  1.000000E+00    0.000000
  0.082870750  9.603634E-01  -95.311348  6.652120E-05  -53.323246  1.000000E+00    0.000000  1.000000E+00    0.000000
  0.083570500  9.605444E-01  -96.046288  3.635794E-05 -108.673004  1.000000E+00    0.000000  1.000000E+00    0.000000
  0.084270250  9.599842E-01  -96.702583  4.828629E-05 -108.913712  1.000000E+00    0.000000  1.000000E+00    0.000000
  0.084970000  9.605171E-01  -97.415314  4.125329E-05 -139.410370  1.000000E+00    0.000000  1.000000E+00    0.000000
  0.085669750  9.604451E-01  -98.116638  2.400226E-05  -76.803185  1.000000E+00    0.000000  1.000000E+00    0.000000
  0.086369500  9.601614E-01  -98.796005  6.265075E-05  -77.304718  1.000000E+00    0.000000  1.000000E+00    0.000000
  0.087069250  9.601207E-01  -99.476547  2.356443E-05  -19.544432  1.000000E+00    0.000000  1.000000E+00    0.000000
  0.087769000  9.606866E-01 -100.163040  5.836369E-05  -71.770561  1.000000E+00    0.000000  1.000000E+00    0.000000
  0.088468750  9.603641E-01 -100.829376  3.173577E-05  -41.945667  1.000000E+00    0.000000  1.000000E+00    0.000000
  0.089168500  9.604737E-01 -101.618752  3.638271E-05  -93.655197  1.000000E+00    0.000000  1.000000E+00    0.000000
  0.089868250  9.604686E-01 -102.298233  4.505600E-05  -62.515259  1.000000E+00    0.000000  1.000000E+00    0.000000
  0.090568000  9.600048E-01 -102.934280  2.763313E-05 -124.255379  1.000000E+00    0.000000  1.000000E+00    0.000000
  0.091267750  9.598481E-01 -103.654190  3.507207E-05  -55.114216  1.000000E+00    0.000000  1.000000E+00    0.000000
  0.091967500  9.603150E-01 -104.292122  3.463700E-05  -59.841522  1.000000E+00    0.000000  1.000000E+00    0.000000
  0.092667250  9.590970E-01 -104.943939  5.284786E-05  -84.975769  1.000000E+00    0.000000  1.000000E+00    0.000000
  0.093367000  9.596186E-01 -105.634315  4.776438E-05  -72.368423  1.000000E+00    0.000000  1.000000E+00    0.000000
  0.094066750  9.592000E-01 -106.312164  6.040535E-05  -28.210125  1.000000E+00    0.000000  1.000000E+00    0.000000
  0.094766500  9.598760E-01 -106.976311  4.123601E-05  -56.000984  1.000000E+00    0.000000  1.000000E+00    0.000000
  0.095466250  9.601496E-01 -107.654129  3.370010E-05  -57.379074  1.000000E+00    0.000000  1.000000E+00    0.000000
  0.096166000  9.598396E-01 -108.307640  4.618654E-05  -45.473160  1.000000E+00    0.000000  1.000000E+00    0.000000
  0.096865750  9.598053E-01 -108.957008  5.703621E-05  -24.906330  1.000000E+00    0.000000  1.000000E+00    0.000000
  0.097565500  9.592571E-01 -109.645576  6.123066E-05  -22.211073  1.000000E+00    0.000000  1.000000E+00    0.000000
  0.098265250  9.585709E-01 -110.317558  3.015116E-05  -64.275375  1.000000E+00    0.000000  1.000000E+00    0.000000
  0.098965000  9.592373E-01 -110.982353  7.590472E-05  -25.903593  1.000000E+00    0.000000  1.000000E+00    0.000000
  0.099664750  9.589748E-01 -111.627945  3.593072E-05  -14.881922  1.000000E+00    0.000000  1.000000E+00    0.000000
  0.100364500  9.601306E-01 -112.250893  7.958596E-05  -45.221596  1.000000E+00    0.000000  1.000000E+00    0.000000
  0.101064250  9.606407E-01 -112.909370  5.818438E-05  -21.631989  1.000000E+00    0.000000  1.000000E+00    0.000000
  0.101764000  9.604046E-01 -113.481110  6.686473E-05    0.109114  1.000000E+00    0.000000  1.000000E+00    0.000000
  0.102463750  9.597835E-01 -114.196182  4.175692E-05    1.210724  1.000000E+00    0.000000  1.000000E+00    0.000000
  0.103163500  9.595309E-01 -114.842743  5.852963E-05  -17.169481  1.000000E+00    0.000000  1.000000E+00    0.000000
  0.103863250  9.595450E-01 -115.438499  6.225307E-05   -1.680337  1.000000E+00    0.000000  1.000000E+00    0.000000
  0.104563000  9.588291E-01 -116.169594  2.553241E-05    2.458743  1.000000E+00    0.000000  1.000000E+00    0.000000
  0.105262750  9.587856E-01 -116.754295  6.886706E-05  -11.216244  1.000000E+00    0.000000  1.000000E+00    0.000000
  0.105962500  9.579372E-01 -117.432785  5.085054E-05   30.074873  1.000000E+00    0.000000  1.000000E+00    0.000000
  0.106662250  9.568917E-01 -118.092102  4.865728E-05   -3.008885  1.000000E+00    0.000000  1.000000E+00    0.000000
  0.107362000  9.574464E-01 -118.713631  4.369511E-05   -6.740322  1.000000E+00    0.000000  1.000000E+00    0.000000
  0.108061750  9.560590E-01 -119.421951  2.604752E-05   15.620386  1.000000E+00    0.000000  1.000000E+00    0.000000
  0.108761500  9.571154E-01 -119.972725  2.579565E-05   29.178999  1.000000E+00    0.000000  1.000000E+00    0.000000
  0.109461250  9.551845E-01 -120.718864  6.005288E-05  -39.345825  1.000000E+00    0.000000  1.000000E+00    0.000000
