! Anritsu VNA Master:                           Model: MS2025B
! SN:                                  1642059
! /bd0/PROE/TP1/MSLine1.s2p
! Existing Calibration Information:
! TYPE:                         Current Settings,       Active Cal Settings
! TIME:             	   04/16/2024 08:34:31 AM,    03/12/2018 11:45:53 AM
! INTERNAL TEMP:    	                   41.8 C,                    40.8 C
! # POINTS:         	                     4001,                      4001
! START FREQ:       	                1.000 MHz,                 1.000 MHz
! STOP FREQ:        	                2.800 GHz,                 2.800 GHz
! SOURCE POWER:     	                  Default,                   Default
! IFBW:             	                    1 kHz,                     1 kHz
! AVG FACTOR:       	                       1 ,                        1 
! REF PLANE 1:      	                     0 mm,                      0 mm
! REF PLANE 2:      	                     0 mm,                      0 mm
! CAL TYPE:         	             1P2P S11,S21,              1P2P S11,S21
! CAL METHOD:       	                     SOLT,                      SOLT
! CAL LINE TYPE:    	                     Coax,                      Coax
! DUT PORT 1:       	                         ,                          
! DUT PORT 2:       	                N-Conn(M),                 N-Conn(M)
! CAL STATUS:       	        OK: Accuracy High,                        --
# GHZ S MA R 50.0
! FREQ.GHZ       S11M         S11A         S21M         S21A         S12M         S12A         S22M         S22A
  0.001000000  2.007634E-02 -178.594879  1.875157E-05   61.229034  1.000000E+00    0.000000  1.000000E+00    0.000000
  0.001699750  2.226658E-02 -176.210785  4.934951E-05  -51.188808  1.000000E+00    0.000000  1.000000E+00    0.000000
  0.002399500  2.227085E-02  179.006668  4.161308E-05  -47.141140  1.000000E+00    0.000000  1.000000E+00    0.000000
  0.003099250  2.192257E-02  177.084839  3.546673E-05  -77.126152  1.000000E+00    0.000000  1.000000E+00    0.000000
  0.003799000  2.129576E-02  176.875427  2.554681E-05 -100.009026  1.000000E+00    0.000000  1.000000E+00    0.000000
  0.004498750  2.145777E-02  177.425140  4.435132E-05  -61.139843  1.000000E+00    0.000000  1.000000E+00    0.000000
  0.005198500  2.088234E-02  178.792221  2.760917E-05  -57.511059  1.000000E+00    0.000000  1.000000E+00    0.000000
  0.005898250  2.100956E-02  177.780350  3.116561E-05  -35.576893  1.000000E+00    0.000000  1.000000E+00    0.000000
  0.006598000  2.080375E-02  179.346848  3.576291E-05  -34.923836  1.000000E+00    0.000000  1.000000E+00    0.000000
  0.007297750  2.047110E-02 -178.853729  7.224538E-05  -35.178585  1.000000E+00    0.000000  1.000000E+00    0.000000
  0.007997500  2.000330E-02 -179.981339  4.420296E-05   36.994305  1.000000E+00    0.000000  1.000000E+00    0.000000
  0.008697250  2.077117E-02 -179.848969  4.473154E-05  -35.042923  1.000000E+00    0.000000  1.000000E+00    0.000000
  0.009397000  2.068023E-02 -176.820786  3.953603E-05  -13.801754  1.000000E+00    0.000000  1.000000E+00    0.000000
  0.010096750  2.021747E-02 -176.487839  8.239224E-05  -14.035705  1.000000E+00    0.000000  1.000000E+00    0.000000
  0.010796500  2.051080E-02 -175.806946  4.495764E-05   -3.847760  1.000000E+00    0.000000  1.000000E+00    0.000000
  0.011496250  2.073669E-02 -174.956406  4.054056E-05   75.913025  1.000000E+00    0.000000  1.000000E+00    0.000000
  0.012196000  2.046365E-02 -173.343384  4.078474E-05  -42.599022  1.000000E+00    0.000000  1.000000E+00    0.000000
  0.012895750  2.086048E-02 -174.296158  2.123001E-05  -38.194103  1.000000E+00    0.000000  1.000000E+00    0.000000
  0.013595500  2.072269E-02 -173.251205  3.547241E-05  -21.977354  1.000000E+00    0.000000  1.000000E+00    0.000000
  0.014295250  2.069494E-02 -173.219711  3.760603E-05   15.154229  1.000000E+00    0.000000  1.000000E+00    0.000000
  0.014995000  2.117473E-02 -171.890808  1.960622E-05   39.603897  1.000000E+00    0.000000  1.000000E+00    0.000000
  0.015694750  2.107200E-02 -171.835068  6.113737E-05   23.120930  1.000000E+00    0.000000  1.000000E+00    0.000000
  0.016394500  2.138573E-02 -170.876892  2.645290E-06 -137.913208  1.000000E+00    0.000000  1.000000E+00    0.000000
  0.017094250  2.176390E-02 -170.328934  7.459790E-05    4.597202  1.000000E+00    0.000000  1.000000E+00    0.000000
  0.017794000  2.198335E-02 -169.955475  6.786232E-05  -11.974651  1.000000E+00    0.000000  1.000000E+00    0.000000
  0.018493750  2.219370E-02 -170.128281  5.440683E-05   58.107262  1.000000E+00    0.000000  1.000000E+00    0.000000
  0.019193500  2.245644E-02 -168.682831  5.858109E-05   15.689264  1.000000E+00    0.000000  1.000000E+00    0.000000
  0.019893250  2.274329E-02 -169.357834  5.109284E-05  -33.876247  1.000000E+00    0.000000  1.000000E+00    0.000000
  0.020593000  2.263441E-02 -168.319595  3.057564E-05  -26.598488  1.000000E+00    0.000000  1.000000E+00    0.000000
  0.021292750  2.284386E-02 -167.762665  1.874934E-05   48.292763  1.000000E+00    0.000000  1.000000E+00    0.000000
  0.021992500  2.270523E-02 -167.961624  7.563291E-05   -3.821974  1.000000E+00    0.000000  1.000000E+00    0.000000
  0.022692250  2.337569E-02 -167.094376  3.966898E-05   17.952942  1.000000E+00    0.000000  1.000000E+00    0.000000
  0.023392000  2.330612E-02 -166.475052  1.846739E-05  -39.991043  1.000000E+00    0.000000  1.000000E+00    0.000000
  0.024091750  2.350445E-02 -166.155365  3.264108E-05   -1.603299  1.000000E+00    0.000000  1.000000E+00    0.000000
  0.024791500  2.392487E-02 -166.198380  2.629244E-05  -31.528723  1.000000E+00    0.000000  1.000000E+00    0.000000
  0.025491250  2.395436E-02 -164.496887  2.149458E-05   92.561546  1.000000E+00    0.000000  1.000000E+00    0.000000
  0.026191000  2.426270E-02 -165.247787  5.902956E-05   35.871845  1.000000E+00    0.000000  1.000000E+00    0.000000
  0.026890750  2.420014E-02 -164.547089  5.378102E-05   20.959845  1.000000E+00    0.000000  1.000000E+00    0.000000
  0.027590500  2.452584E-02 -164.624176  3.647573E-05   24.967405  1.000000E+00    0.000000  1.000000E+00    0.000000
  0.028290250  2.484357E-02 -163.822113  4.923176E-05   27.787458  1.000000E+00    0.000000  1.000000E+00    0.000000
  0.028990000  2.512748E-02 -164.080566  3.071323E-05   10.241241  1.000000E+00    0.000000  1.000000E+00    0.000000
  0.029689750  2.528103E-02 -162.900497  3.914619E-05   12.461195  1.000000E+00    0.000000  1.000000E+00    0.000000
  0.030389500  2.547072E-02 -163.273193  5.407688E-05   32.148445  1.000000E+00    0.000000  1.000000E+00    0.000000
  0.031089250  2.544399E-02 -162.637833  5.428347E-05   60.486004  1.000000E+00    0.000000  1.000000E+00    0.000000
  0.031789000  2.555421E-02 -162.535934  5.940462E-05   46.770702  1.000000E+00    0.000000  1.000000E+00    0.000000
  0.032488750  2.571467E-02 -162.303818  2.979713E-05   47.630657  1.000000E+00    0.000000  1.000000E+00    0.000000
  0.033188500  2.571555E-02 -162.397614  7.124919E-05   45.439667  1.000000E+00    0.000000  1.000000E+00    0.000000
  0.033888250  2.577186E-02 -162.352325  4.793795E-05   55.296646  1.000000E+00    0.000000  1.000000E+00    0.000000
  0.034588000  2.638454E-02 -161.362381  5.309517E-05   44.083771  1.000000E+00    0.000000  1.000000E+00    0.000000
  0.035287750  2.658825E-02 -161.475800  5.109569E-05   89.723900  1.000000E+00    0.000000  1.000000E+00    0.000000
  0.035987500  2.687548E-02 -160.448090  6.595042E-05   81.097900  1.000000E+00    0.000000  1.000000E+00    0.000000
  0.036687250  2.702999E-02 -160.797485  3.042203E-05   39.315739  1.000000E+00    0.000000  1.000000E+00    0.000000
  0.037387000  2.778940E-02 -160.416534  5.043415E-05   31.461010  1.000000E+00    0.000000  1.000000E+00    0.000000
  0.038086750  2.751764E-02 -160.746811  2.510078E-05   77.033028  1.000000E+00    0.000000  1.000000E+00    0.000000
  0.038786500  2.766797E-02 -160.213669  4.589319E-05   40.773853  1.000000E+00    0.000000  1.000000E+00    0.000000
  0.039486250  2.819066E-02 -159.956924  4.254729E-05   83.874901  1.000000E+00    0.000000  1.000000E+00    0.000000
  0.040186000  2.829651E-02 -160.453552  7.689990E-05   57.176781  1.000000E+00    0.000000  1.000000E+00    0.000000
  0.040885750  2.860843E-02 -159.272934  4.167760E-05   60.992771  1.000000E+00    0.000000  1.000000E+00    0.000000
  0.041585500  2.816509E-02 -159.715088  6.653281E-05   59.033379  1.000000E+00    0.000000  1.000000E+00    0.000000
  0.042285250  2.896398E-02 -158.933807  3.153329E-05   70.737160  1.000000E+00    0.000000  1.000000E+00    0.000000
  0.042985000  2.888264E-02 -158.529694  5.460589E-05   85.696014  1.000000E+00    0.000000  1.000000E+00    0.000000
  0.043684750  2.914489E-02 -158.168182  6.567308E-06   63.919582  1.000000E+00    0.000000  1.000000E+00    0.000000
  0.044384500  2.940102E-02 -158.540863  5.595767E-05   52.060505  1.000000E+00    0.000000  1.000000E+00    0.000000
  0.045084250  2.930312E-02 -157.873093  5.465588E-05   99.224205  1.000000E+00    0.000000  1.000000E+00    0.000000
  0.045784000  2.987993E-02 -157.975006  2.984697E-05  122.503502  1.000000E+00    0.000000  1.000000E+00    0.000000
  0.046483750  2.974923E-02 -158.175949  6.060950E-05  113.659172  1.000000E+00    0.000000  1.000000E+00    0.000000
  0.047183500  3.017851E-02 -157.848328  4.851710E-05   95.378342  1.000000E+00    0.000000  1.000000E+00    0.000000
  0.047883250  3.010799E-02 -157.785873  6.530058E-05   89.115143  1.000000E+00    0.000000  1.000000E+00    0.000000
  0.048583000  3.026850E-02 -156.883041  7.109550E-05  109.720840  1.000000E+00    0.000000  1.000000E+00    0.000000
  0.049282750  3.046474E-02 -157.301071  6.364236E-05  119.907127  1.000000E+00    0.000000  1.000000E+00    0.000000
  0.049982500  3.061310E-02 -156.590057  4.705449E-05   77.305679  1.000000E+00    0.000000  1.000000E+00    0.000000
  0.050682250  3.082331E-02 -157.078583  7.420214E-05  140.934418  1.000000E+00    0.000000  1.000000E+00    0.000000
  0.051382000  3.128663E-02 -157.011261  9.570017E-05  130.361969  1.000000E+00    0.000000  1.000000E+00    0.000000
  0.052081750  3.145950E-02 -156.630310  6.784539E-05  130.208694  1.000000E+00    0.000000  1.000000E+00    0.000000
  0.052781500  3.121798E-02 -156.534698  4.782308E-05  136.650009  1.000000E+00    0.000000  1.000000E+00    0.000000
  0.053481250  3.173360E-02 -156.117981  4.952335E-05   87.058403  1.000000E+00    0.000000  1.000000E+00    0.000000
  0.054181000  3.146105E-02 -156.323074  5.684950E-05  110.216507  1.000000E+00    0.000000  1.000000E+00    0.000000
  0.054880750  3.196128E-02 -155.745285  5.932503E-05  157.440308  1.000000E+00    0.000000  1.000000E+00    0.000000
  0.055580500  3.198861E-02 -155.736496  5.631979E-05  156.998337  1.000000E+00    0.000000  1.000000E+00    0.000000
  0.056280250  3.253309E-02 -156.301163  1.345872E-05   58.758839  1.000000E+00    0.000000  1.000000E+00    0.000000
  0.056980000  3.224030E-02 -156.093750  3.649978E-05  151.016769  1.000000E+00    0.000000  1.000000E+00    0.000000
  0.057679750  3.234881E-02 -155.806061  3.630585E-05  150.657730  1.000000E+00    0.000000  1.000000E+00    0.000000
  0.058379500  3.284214E-02 -155.220566  7.449408E-05 -166.420166  1.000000E+00    0.000000  1.000000E+00    0.000000
  0.059079250  3.306698E-02 -155.789200  9.560789E-05  129.102722  1.000000E+00    0.000000  1.000000E+00    0.000000
  0.059779000  3.307737E-02 -156.253036  6.750924E-05  122.323471  1.000000E+00    0.000000  1.000000E+00    0.000000
  0.060478750  3.270623E-02 -155.686127  4.009131E-05 -170.284393  1.000000E+00    0.000000  1.000000E+00    0.000000
  0.061178500  3.312624E-02 -155.791092  6.520024E-05 -161.924759  1.000000E+00    0.000000  1.000000E+00    0.000000
  0.061878250  3.332460E-02 -156.153732  6.628914E-05  167.368408  1.000000E+00    0.000000  1.000000E+00    0.000000
  0.062578000  3.314979E-02 -155.507401  3.788215E-05 -166.927994  1.000000E+00    0.000000  1.000000E+00    0.000000
  0.063277750  3.318532E-02 -155.917358  4.588725E-05 -156.591736  1.000000E+00    0.000000  1.000000E+00    0.000000
  0.063977500  3.373891E-02 -155.685730  2.625512E-05 -178.752823  1.000000E+00    0.000000  1.000000E+00    0.000000
  0.064677250  3.361546E-02 -155.842316  9.295746E-05 -162.191681  1.000000E+00    0.000000  1.000000E+00    0.000000
  0.065377000  3.410298E-02 -155.576736  8.643208E-05  165.859634  1.000000E+00    0.000000  1.000000E+00    0.000000
  0.066076750  3.407887E-02 -155.352615  7.150634E-05  178.517410  1.000000E+00    0.000000  1.000000E+00    0.000000
  0.066776500  3.432653E-02 -155.676849  4.019701E-05 -109.396698  1.000000E+00    0.000000  1.000000E+00    0.000000
  0.067476250  3.433686E-02 -155.528915  6.161504E-05 -167.275909  1.000000E+00    0.000000  1.000000E+00    0.000000
  0.068176000  3.438619E-02 -155.790115  6.025773E-05 -163.542557  1.000000E+00    0.000000  1.000000E+00    0.000000
  0.068875750  3.450181E-02 -155.349838  3.081358E-05 -139.045624  1.000000E+00    0.000000  1.000000E+00    0.000000
  0.069575500  3.472473E-02 -155.750000  8.746387E-05 -169.088226  1.000000E+00    0.000000  1.000000E+00    0.000000
  0.070275250  3.459626E-02 -156.141449  3.631712E-05 -162.694382  1.000000E+00    0.000000  1.000000E+00    0.000000
  0.070975000  3.475055E-02 -156.499008  5.644830E-05 -147.474304  1.000000E+00    0.000000  1.000000E+00    0.000000
  0.071674750  3.454938E-02 -156.326523  2.077134E-05 -160.119110  1.000000E+00    0.000000  1.000000E+00    0.000000
  0.072374500  3.509867E-02 -156.065765  5.267461E-05  -75.311356  1.000000E+00    0.000000  1.000000E+00    0.000000
  0.073074250  3.496826E-02 -156.214828  5.970039E-05 -130.294205  1.000000E+00    0.000000  1.000000E+00    0.000000
  0.073774000  3.477106E-02 -156.525024  2.224902E-05  134.055969  1.000000E+00    0.000000  1.000000E+00    0.000000
  0.074473750  3.529882E-02 -156.650482  5.456225E-05 -129.518433  1.000000E+00    0.000000  1.000000E+00    0.000000
  0.075173500  3.527799E-02 -157.039703  6.695970E-05 -117.231712  1.000000E+00    0.000000  1.000000E+00    0.000000
  0.075873250  3.535165E-02 -157.118240  2.864864E-05  -75.326797  1.000000E+00    0.000000  1.000000E+00    0.000000
  0.076573000  3.534519E-02 -157.229202  5.086488E-05  -87.714020  1.000000E+00    0.000000  1.000000E+00    0.000000
  0.077272750  3.528070E-02 -156.791595  3.759930E-05 -151.793564  1.000000E+00    0.000000  1.000000E+00    0.000000
  0.077972500  3.554310E-02 -157.271332  4.810830E-05  -80.431519  1.000000E+00    0.000000  1.000000E+00    0.000000
  0.078672250  3.557862E-02 -157.315720  4.693358E-05 -158.874405  1.000000E+00    0.000000  1.000000E+00    0.000000
  0.079372000  3.565480E-02 -157.580170  4.661735E-05  -93.614769  1.000000E+00    0.000000  1.000000E+00    0.000000
  0.080071750  3.560789E-02 -157.789780  4.049082E-05 -124.409821  1.000000E+00    0.000000  1.000000E+00    0.000000
  0.080771500  3.601529E-02 -157.788223  3.093273E-05 -152.901962  1.000000E+00    0.000000  1.000000E+00    0.000000
  0.081471250  3.599152E-02 -158.063614  3.861580E-05  -92.936150  1.000000E+00    0.000000  1.000000E+00    0.000000
  0.082171000  3.602213E-02 -157.839050  3.941188E-05 -116.936020  1.000000E+00    0.000000  1.000000E+00    0.000000
  0.082870750  3.619444E-02 -157.873566  4.706985E-05  -72.889091  1.000000E+00    0.000000  1.000000E+00    0.000000
  0.083570500  3.624542E-02 -158.276901  4.866049E-05  -59.185268  1.000000E+00    0.000000  1.000000E+00    0.000000
  0.084270250  3.607506E-02 -158.739731  6.610792E-05  -77.986275  1.000000E+00    0.000000  1.000000E+00    0.000000
  0.084970000  3.651666E-02 -159.188461  6.014353E-05  -72.860947  1.000000E+00    0.000000  1.000000E+00    0.000000
  0.085669750  3.649502E-02 -159.439682  4.073973E-05  -62.344524  1.000000E+00    0.000000  1.000000E+00    0.000000
  0.086369500  3.656069E-02 -159.414352  3.020146E-05  -64.871384  1.000000E+00    0.000000  1.000000E+00    0.000000
  0.087069250  3.662684E-02 -159.401749  1.891920E-05  -91.953796  1.000000E+00    0.000000  1.000000E+00    0.000000
  0.087769000  3.642333E-02 -159.791138  7.177564E-05  -48.883614  1.000000E+00    0.000000  1.000000E+00    0.000000
  0.088468750  3.672222E-02 -159.529968  4.394273E-05  -65.130997  1.000000E+00    0.000000  1.000000E+00    0.000000
  0.089168500  3.678395E-02 -160.004059  6.002247E-05  -53.608021  1.000000E+00    0.000000  1.000000E+00    0.000000
  0.089868250  3.706843E-02 -160.453094  2.918532E-05  -94.174385  1.000000E+00    0.000000  1.000000E+00    0.000000
  0.090568000  3.699479E-02 -160.456314  7.452699E-05  -79.603706  1.000000E+00    0.000000  1.000000E+00    0.000000
  0.091267750  3.720763E-02 -161.119537  5.173600E-05  -36.758820  1.000000E+00    0.000000  1.000000E+00    0.000000
  0.091967500  3.731320E-02 -161.130005  2.269700E-05  -76.821930  1.000000E+00    0.000000  1.000000E+00    0.000000
  0.092667250  3.739896E-02 -161.636078  6.725519E-05  -23.021198  1.000000E+00    0.000000  1.000000E+00    0.000000
  0.093367000  3.769731E-02 -161.948074  2.655542E-05  -96.782120  1.000000E+00    0.000000  1.000000E+00    0.000000
  0.094066750  3.773878E-02 -161.914139  1.334740E-05  -28.202806  1.000000E+00    0.000000  1.000000E+00    0.000000
  0.094766500  3.803180E-02 -161.800735  5.343532E-05  -28.436050  1.000000E+00    0.000000  1.000000E+00    0.000000
  0.095466250  3.775643E-02 -161.761902  6.971540E-05  -71.825050  1.000000E+00    0.000000  1.000000E+00    0.000000
  0.096166000  3.783659E-02 -162.040512  4.541012E-05  -13.449292  1.000000E+00    0.000000  1.000000E+00    0.000000
  0.096865750  3.805410E-02 -162.623383  1.080478E-05   16.990282  1.000000E+00    0.000000  1.000000E+00    0.000000
  0.097565500  3.843620E-02 -162.938828  3.491003E-05  -10.507733  1.000000E+00    0.000000  1.000000E+00    0.000000
  0.098265250  3.846930E-02 -163.144363  1.250555E-05  -71.793739  1.000000E+00    0.000000  1.000000E+00    0.000000
  0.098965000  3.855828E-02 -163.187683  3.898918E-05  -20.945118  1.000000E+00    0.000000  1.000000E+00    0.000000
  0.099664750  3.857810E-02 -163.253204  5.031706E-05   15.209098  1.000000E+00    0.000000  1.000000E+00    0.000000
  0.100364500  3.822885E-02 -163.728043  5.016979E-05   -6.526114  1.000000E+00    0.000000  1.000000E+00    0.000000
  0.101064250  3.872054E-02 -164.161453  4.678089E-05  -18.276850  1.000000E+00    0.000000  1.000000E+00    0.000000
  0.101764000  3.870662E-02 -164.263138  3.097728E-05   23.115410  1.000000E+00    0.000000  1.000000E+00    0.000000
  0.102463750  3.865654E-02 -164.550446  4.417246E-05  -25.156830  1.000000E+00    0.000000  1.000000E+00    0.000000
  0.103163500  3.911080E-02 -164.041443  5.552107E-05  -31.097733  1.000000E+00    0.000000  1.000000E+00    0.000000
  0.103863250  3.950080E-02 -164.466019  2.492590E-05  -32.241512  1.000000E+00    0.000000  1.000000E+00    0.000000
  0.104563000  3.918346E-02 -165.158936  2.073866E-05   43.402760  1.000000E+00    0.000000  1.000000E+00    0.000000
  0.105262750  3.945761E-02 -165.782272  5.784648E-05  -17.641953  1.000000E+00    0.000000  1.000000E+00    0.000000
  0.105962500  3.919071E-02 -166.079529  3.380407E-05   21.070465  1.000000E+00    0.000000  1.000000E+00    0.000000
  0.106662250  3.960029E-02 -166.360474  2.646302E-05    2.858307  1.000000E+00    0.000000  1.000000E+00    0.000000
  0.107362000  3.982491E-02 -166.246292  4.002809E-05   42.556549  1.000000E+00    0.000000  1.000000E+00    0.000000
  0.108061750  3.976154E-02 -167.131653  2.965389E-05   -4.435002  1.000000E+00    0.000000  1.000000E+00    0.000000
  0.108761500  4.014959E-02 -166.976166  4.759004E-05  -35.497078  1.000000E+00    0.000000  1.000000E+00    0.000000
  0.109461250  4.006857E-02 -167.178452  5.741969E-05   13.416727  1.000000E+00    0.000000  1.000000E+00    0.000000
