! Anritsu VNA Master:                           Model: MS2025B
! SN:                                  1642059
! /bd0/PROE/TP1/MSLine2OC.s2p
! Existing Calibration Information:
! TYPE:                         Current Settings,       Active Cal Settings
! TIME:             	   04/16/2024 08:36:44 AM,    03/12/2018 11:45:53 AM
! INTERNAL TEMP:    	                   42.0 C,                    40.8 C
! # POINTS:         	                     4001,                      4001
! START FREQ:       	                1.000 MHz,                 1.000 MHz
! STOP FREQ:        	                2.800 GHz,                 2.800 GHz
! SOURCE POWER:     	                  Default,                   Default
! IFBW:             	                    1 kHz,                     1 kHz
! AVG FACTOR:       	                       1 ,                        1 
! REF PLANE 1:      	                     0 mm,                      0 mm
! REF PLANE 2:      	                     0 mm,                      0 mm
! CAL TYPE:         	             1P2P S11,S21,              1P2P S11,S21
! CAL METHOD:       	                     SOLT,                      SOLT
! CAL LINE TYPE:    	                     Coax,                      Coax
! DUT PORT 1:       	                         ,                          
! DUT PORT 2:       	                N-Conn(M),                 N-Conn(M)
! CAL STATUS:       	        OK: Accuracy High,                        --
# GHZ S MA R 50.0
! FREQ.GHZ       S11M         S11A         S21M         S21A         S12M         S12A         S22M         S22A
  0.001000000  9.953927E-01   -0.696971  5.185019E-05 -108.636261  1.000000E+00    0.000000  1.000000E+00    0.000000
  0.001699750  9.926571E-01   -1.392513  6.189979E-05  -73.288361  1.000000E+00    0.000000  1.000000E+00    0.000000
  0.002399500  9.910635E-01   -2.091881  4.808241E-05  -65.962921  1.000000E+00    0.000000  1.000000E+00    0.000000
  0.003099250  9.897314E-01   -2.826948  5.849995E-05 -109.421173  1.000000E+00    0.000000  1.000000E+00    0.000000
  0.003799000  9.923953E-01   -3.545397  5.748371E-05  -82.948349  1.000000E+00    0.000000  1.000000E+00    0.000000
  0.004498750  9.899059E-01   -4.270115  3.643392E-05  -57.142460  1.000000E+00    0.000000  1.000000E+00    0.000000
  0.005198500  9.892306E-01   -4.959516  4.510501E-05  -73.737022  1.000000E+00    0.000000  1.000000E+00    0.000000
  0.005898250  9.907698E-01   -5.675510  3.551710E-05  -39.200726  1.000000E+00    0.000000  1.000000E+00    0.000000
  0.006598000  9.899487E-01   -6.387681  2.829941E-05  -62.199467  1.000000E+00    0.000000  1.000000E+00    0.000000
  0.007297750  9.887633E-01   -7.070126  4.919413E-05  -96.482529  1.000000E+00    0.000000  1.000000E+00    0.000000
  0.007997500  9.885376E-01   -7.795089  8.371040E-06  -14.968580  1.000000E+00    0.000000  1.000000E+00    0.000000
  0.008697250  9.897940E-01   -8.569020  6.057715E-05 -148.890625  1.000000E+00    0.000000  1.000000E+00    0.000000
  0.009397000  9.903636E-01   -9.223063  8.849448E-05  -25.432119  1.000000E+00    0.000000  1.000000E+00    0.000000
  0.010096750  9.903806E-01   -9.947382  2.178628E-05  -85.360725  1.000000E+00    0.000000  1.000000E+00    0.000000
  0.010796500  9.911136E-01  -10.634073  2.300022E-05  -35.233322  1.000000E+00    0.000000  1.000000E+00    0.000000
  0.011496250  9.919037E-01  -11.347735  3.754052E-05  -54.989109  1.000000E+00    0.000000  1.000000E+00    0.000000
  0.012196000  9.914153E-01  -12.057801  3.175694E-05  -91.558296  1.000000E+00    0.000000  1.000000E+00    0.000000
  0.012895750  9.906779E-01  -12.784035  5.822755E-05   62.368450  1.000000E+00    0.000000  1.000000E+00    0.000000
  0.013595500  9.911897E-01  -13.443673  4.126678E-05  -18.672789  1.000000E+00    0.000000  1.000000E+00    0.000000
  0.014295250  9.908296E-01  -14.093086  1.980801E-05   78.314896  1.000000E+00    0.000000  1.000000E+00    0.000000
  0.014995000  9.908584E-01  -14.838007  6.723146E-05  -13.255272  1.000000E+00    0.000000  1.000000E+00    0.000000
  0.015694750  9.900970E-01  -15.513759  3.010075E-05   34.109299  1.000000E+00    0.000000  1.000000E+00    0.000000
  0.016394500  9.896511E-01  -16.238295  1.502902E-05  125.558136  1.000000E+00    0.000000  1.000000E+00    0.000000
  0.017094250  9.908337E-01  -16.915138  4.745646E-05  -41.317451  1.000000E+00    0.000000  1.000000E+00    0.000000
  0.017794000  9.898001E-01  -17.624916  1.783438E-05   73.908142  1.000000E+00    0.000000  1.000000E+00    0.000000
  0.018493750  9.903794E-01  -18.308371  5.026513E-05   24.459908  1.000000E+00    0.000000  1.000000E+00    0.000000
  0.019193500  9.902015E-01  -19.030535  3.879743E-05   22.439537  1.000000E+00    0.000000  1.000000E+00    0.000000
  0.019893250  9.895965E-01  -19.664747  5.247702E-05   10.228634  1.000000E+00    0.000000  1.000000E+00    0.000000
  0.020593000  9.903083E-01  -20.391558  2.231272E-05  -68.260620  1.000000E+00    0.000000  1.000000E+00    0.000000
  0.021292750  9.886618E-01  -21.052544  2.281689E-05   41.872818  1.000000E+00    0.000000  1.000000E+00    0.000000
  0.021992500  9.891131E-01  -21.768387  6.048522E-05   23.811361  1.000000E+00    0.000000  1.000000E+00    0.000000
  0.022692250  9.889598E-01  -22.451000  2.418459E-05   58.982815  1.000000E+00    0.000000  1.000000E+00    0.000000
  0.023392000  9.881459E-01  -23.087561  4.893685E-05   11.579742  1.000000E+00    0.000000  1.000000E+00    0.000000
  0.024091750  9.881667E-01  -23.823069  3.945283E-05   17.263378  1.000000E+00    0.000000  1.000000E+00    0.000000
  0.024791500  9.877064E-01  -24.519941  3.066386E-05   65.708443  1.000000E+00    0.000000  1.000000E+00    0.000000
  0.025491250  9.920067E-01  -25.060802  8.137493E-05   31.610239  1.000000E+00    0.000000  1.000000E+00    0.000000
  0.026191000  9.914822E-01  -25.758419  3.585848E-05   25.950365  1.000000E+00    0.000000  1.000000E+00    0.000000
  0.026890750  9.908906E-01  -26.476536  4.787061E-05   45.252548  1.000000E+00    0.000000  1.000000E+00    0.000000
  0.027590500  9.904875E-01  -27.193771  8.168165E-05   52.966831  1.000000E+00    0.000000  1.000000E+00    0.000000
  0.028290250  9.898519E-01  -27.942041  4.040189E-05   18.335121  1.000000E+00    0.000000  1.000000E+00    0.000000
  0.028990000  9.897471E-01  -28.628298  7.004040E-05   51.093147  1.000000E+00    0.000000  1.000000E+00    0.000000
  0.029689750  9.885070E-01  -29.346935  8.650673E-05   47.993938  1.000000E+00    0.000000  1.000000E+00    0.000000
  0.030389500  9.888470E-01  -29.993345  8.045392E-05   -0.512327  1.000000E+00    0.000000  1.000000E+00    0.000000
  0.031089250  9.870833E-01  -30.752916  2.748444E-05   61.131294  1.000000E+00    0.000000  1.000000E+00    0.000000
  0.031789000  9.869276E-01  -31.413687  7.167858E-05   46.639984  1.000000E+00    0.000000  1.000000E+00    0.000000
  0.032488750  9.858111E-01  -32.127132  6.360404E-05   56.693069  1.000000E+00    0.000000  1.000000E+00    0.000000
  0.033188500  9.851935E-01  -32.792778  4.505610E-05   87.680916  1.000000E+00    0.000000  1.000000E+00    0.000000
  0.033888250  9.843515E-01  -33.454914  5.921647E-05   68.384010  1.000000E+00    0.000000  1.000000E+00    0.000000
  0.034588000  9.839465E-01  -34.179798  7.054911E-05   61.769798  1.000000E+00    0.000000  1.000000E+00    0.000000
  0.035287750  9.830880E-01  -34.849083  5.043873E-05   54.986362  1.000000E+00    0.000000  1.000000E+00    0.000000
  0.035987500  9.833586E-01  -35.548378  6.436933E-05   64.891479  1.000000E+00    0.000000  1.000000E+00    0.000000
  0.036687250  9.819764E-01  -36.277485  5.343408E-05   54.907310  1.000000E+00    0.000000  1.000000E+00    0.000000
  0.037387000  9.811878E-01  -36.968014  6.148285E-05   77.621315  1.000000E+00    0.000000  1.000000E+00    0.000000
  0.038086750  9.818293E-01  -37.614845  7.319708E-05   41.315224  1.000000E+00    0.000000  1.000000E+00    0.000000
  0.038786500  9.808298E-01  -38.334866  4.254354E-05   58.296875  1.000000E+00    0.000000  1.000000E+00    0.000000
  0.039486250  9.808734E-01  -39.049805  6.517173E-05   67.441414  1.000000E+00    0.000000  1.000000E+00    0.000000
  0.040186000  9.796656E-01  -39.734989  7.558364E-05   69.503922  1.000000E+00    0.000000  1.000000E+00    0.000000
  0.040885750  9.810132E-01  -40.394695  6.917872E-05  106.571342  1.000000E+00    0.000000  1.000000E+00    0.000000
  0.041585500  9.795448E-01  -41.091110  4.492729E-05   82.976936  1.000000E+00    0.000000  1.000000E+00    0.000000
  0.042285250  9.790682E-01  -41.756943  7.179920E-06   65.153069  1.000000E+00    0.000000  1.000000E+00    0.000000
  0.042985000  9.787207E-01  -42.473873  9.166358E-05   81.353119  1.000000E+00    0.000000  1.000000E+00    0.000000
  0.043684750  9.791199E-01  -43.137363  6.739493E-05   88.362167  1.000000E+00    0.000000  1.000000E+00    0.000000
  0.044384500  9.792408E-01  -43.810066  5.710243E-05   74.130920  1.000000E+00    0.000000  1.000000E+00    0.000000
  0.045084250  9.789492E-01  -44.452877  7.605000E-05   81.632225  1.000000E+00    0.000000  1.000000E+00    0.000000
  0.045784000  9.789940E-01  -45.148071  8.070591E-05   82.991631  1.000000E+00    0.000000  1.000000E+00    0.000000
  0.046483750  9.782868E-01  -45.858910  1.128899E-04   87.495209  1.000000E+00    0.000000  1.000000E+00    0.000000
  0.047183500  9.797453E-01  -46.530075  8.783193E-05  129.121460  1.000000E+00    0.000000  1.000000E+00    0.000000
  0.047883250  9.787819E-01  -47.203579  5.767704E-05   99.511017  1.000000E+00    0.000000  1.000000E+00    0.000000
  0.048583000  9.783857E-01  -47.938488  5.399921E-05   69.302567  1.000000E+00    0.000000  1.000000E+00    0.000000
  0.049282750  9.793789E-01  -48.601238  8.582177E-05  109.505318  1.000000E+00    0.000000  1.000000E+00    0.000000
  0.049982500  9.852537E-01  -49.173649  1.128700E-04  108.554779  1.000000E+00    0.000000  1.000000E+00    0.000000
  0.050682250  9.853270E-01  -49.842915  7.620046E-05  131.231354  1.000000E+00    0.000000  1.000000E+00    0.000000
  0.051382000  9.862284E-01  -50.566254  6.911917E-05   95.768196  1.000000E+00    0.000000  1.000000E+00    0.000000
  0.052081750  9.859086E-01  -51.226254  8.004188E-05  134.985672  1.000000E+00    0.000000  1.000000E+00    0.000000
  0.052781500  9.849491E-01  -51.888977  4.875583E-05  177.287399  1.000000E+00    0.000000  1.000000E+00    0.000000
  0.053481250  9.866700E-01  -52.494854  5.784696E-05  137.688644  1.000000E+00    0.000000  1.000000E+00    0.000000
  0.054181000  9.852470E-01  -53.257008  5.169846E-05  136.807037  1.000000E+00    0.000000  1.000000E+00    0.000000
  0.054880750  9.853018E-01  -53.892315  6.590832E-05  145.845047  1.000000E+00    0.000000  1.000000E+00    0.000000
  0.055580500  9.859008E-01  -54.552059  6.646179E-05  144.225861  1.000000E+00    0.000000  1.000000E+00    0.000000
  0.056280250  9.849344E-01  -55.253643  5.987500E-05  123.393417  1.000000E+00    0.000000  1.000000E+00    0.000000
  0.056980000  9.860644E-01  -55.874535  3.841548E-05  158.401581  1.000000E+00    0.000000  1.000000E+00    0.000000
  0.057679750  9.855928E-01  -56.568855  6.812304E-05 -177.542526  1.000000E+00    0.000000  1.000000E+00    0.000000
  0.058379500  9.846995E-01  -57.220680  4.737813E-05  124.511642  1.000000E+00    0.000000  1.000000E+00    0.000000
  0.059079250  9.844207E-01  -57.842392  4.218038E-05 -156.891617  1.000000E+00    0.000000  1.000000E+00    0.000000
  0.059779000  9.839234E-01  -58.526806  6.217200E-05  123.122177  1.000000E+00    0.000000  1.000000E+00    0.000000
  0.060478750  9.832560E-01  -59.146610  7.555440E-05 -175.734238  1.000000E+00    0.000000  1.000000E+00    0.000000
  0.061178500  9.828944E-01  -59.815544  6.093955E-05  138.923157  1.000000E+00    0.000000  1.000000E+00    0.000000
  0.061878250  9.824508E-01  -60.457905  7.733478E-05 -171.218842  1.000000E+00    0.000000  1.000000E+00    0.000000
  0.062578000  9.820967E-01  -61.076611  5.753704E-05  172.459641  1.000000E+00    0.000000  1.000000E+00    0.000000
  0.063277750  9.814778E-01  -61.766815  5.990644E-05 -170.899139  1.000000E+00    0.000000  1.000000E+00    0.000000
  0.063977500  9.808553E-01  -62.361000  4.357037E-05  111.678482  1.000000E+00    0.000000  1.000000E+00    0.000000
  0.064677250  9.801686E-01  -62.997982  7.015500E-05  168.925110  1.000000E+00    0.000000  1.000000E+00    0.000000
  0.065377000  9.794888E-01  -63.664452  6.135501E-05 -176.272232  1.000000E+00    0.000000  1.000000E+00    0.000000
  0.066076750  9.788620E-01  -64.311195  6.781230E-05 -138.462631  1.000000E+00    0.000000  1.000000E+00    0.000000
  0.066776500  9.780334E-01  -64.961319  4.679226E-05 -139.965439  1.000000E+00    0.000000  1.000000E+00    0.000000
  0.067476250  9.780253E-01  -65.601326  4.979114E-05  168.616196  1.000000E+00    0.000000  1.000000E+00    0.000000
  0.068176000  9.779682E-01  -66.239014  8.977312E-05 -172.336487  1.000000E+00    0.000000  1.000000E+00    0.000000
  0.068875750  9.775659E-01  -66.853119  3.987442E-05 -102.261658  1.000000E+00    0.000000  1.000000E+00    0.000000
  0.069575500  9.771068E-01  -67.440933  5.733623E-05 -101.676575  1.000000E+00    0.000000  1.000000E+00    0.000000
  0.070275250  9.757693E-01  -68.114304  2.843131E-05 -165.117767  1.000000E+00    0.000000  1.000000E+00    0.000000
  0.070975000  9.754065E-01  -68.750717  2.974253E-05 -163.127457  1.000000E+00    0.000000  1.000000E+00    0.000000
  0.071674750  9.748784E-01  -69.390945  8.643264E-05 -167.576340  1.000000E+00    0.000000  1.000000E+00    0.000000
  0.072374500  9.739536E-01  -70.054253  4.101829E-05 -110.458839  1.000000E+00    0.000000  1.000000E+00    0.000000
  0.073074250  9.736190E-01  -70.692772  3.057095E-05 -160.961456  1.000000E+00    0.000000  1.000000E+00    0.000000
  0.073774000  9.733611E-01  -71.307785  4.332625E-05 -108.006050  1.000000E+00    0.000000  1.000000E+00    0.000000
  0.074473750  9.729098E-01  -71.990997  3.980820E-05 -162.892654  1.000000E+00    0.000000  1.000000E+00    0.000000
  0.075173500  9.721310E-01  -72.618820  2.782884E-05 -174.319977  1.000000E+00    0.000000  1.000000E+00    0.000000
  0.075873250  9.716367E-01  -73.245811  2.186649E-05 -113.065712  1.000000E+00    0.000000  1.000000E+00    0.000000
  0.076573000  9.709515E-01  -73.919601  3.643281E-05 -121.863159  1.000000E+00    0.000000  1.000000E+00    0.000000
  0.077272750  9.709913E-01  -74.562210  3.010434E-05 -151.513519  1.000000E+00    0.000000  1.000000E+00    0.000000
  0.077972500  9.705122E-01  -75.215523  4.091367E-05  -80.579597  1.000000E+00    0.000000  1.000000E+00    0.000000
  0.078672250  9.702517E-01  -75.871681  4.716049E-05 -108.902054  1.000000E+00    0.000000  1.000000E+00    0.000000
  0.079372000  9.692186E-01  -76.524841  2.364604E-05 -135.297623  1.000000E+00    0.000000  1.000000E+00    0.000000
  0.080071750  9.693465E-01  -77.108658  2.899329E-05 -138.948166  1.000000E+00    0.000000  1.000000E+00    0.000000
  0.080771500  9.687140E-01  -77.774422  5.286024E-05 -136.242111  1.000000E+00    0.000000  1.000000E+00    0.000000
  0.081471250  9.674680E-01  -78.424576  5.250140E-05  -25.731964  1.000000E+00    0.000000  1.000000E+00    0.000000
  0.082171000  9.681385E-01  -79.072189  5.508013E-05  -83.731384  1.000000E+00    0.000000  1.000000E+00    0.000000
  0.082870750  9.678746E-01  -79.745010  4.781510E-05 -112.885429  1.000000E+00    0.000000  1.000000E+00    0.000000
  0.083570500  9.680166E-01  -80.391289  7.537106E-06  -29.934950  1.000000E+00    0.000000  1.000000E+00    0.000000
  0.084270250  9.677523E-01  -81.025162  7.184354E-05  -93.170052  1.000000E+00    0.000000  1.000000E+00    0.000000
  0.084970000  9.681537E-01  -81.676254  3.999200E-05  -66.157532  1.000000E+00    0.000000  1.000000E+00    0.000000
  0.085669750  9.682044E-01  -82.310455  2.156928E-05 -120.300629  1.000000E+00    0.000000  1.000000E+00    0.000000
  0.086369500  9.673026E-01  -82.922447  4.473018E-05  -72.490501  1.000000E+00    0.000000  1.000000E+00    0.000000
  0.087069250  9.678314E-01  -83.576775  2.899146E-05  -74.596062  1.000000E+00    0.000000  1.000000E+00    0.000000
  0.087769000  9.682797E-01  -84.175560  3.012144E-05  -47.832848  1.000000E+00    0.000000  1.000000E+00    0.000000
  0.088468750  9.680973E-01  -84.807877  5.556526E-05  -36.386322  1.000000E+00    0.000000  1.000000E+00    0.000000
  0.089168500  9.682190E-01  -85.533813  1.905057E-05  -95.570633  1.000000E+00    0.000000  1.000000E+00    0.000000
  0.089868250  9.683313E-01  -86.147369  2.492857E-05  -68.310287  1.000000E+00    0.000000  1.000000E+00    0.000000
  0.090568000  9.679751E-01  -86.717407  3.060137E-05   -1.299718  1.000000E+00    0.000000  1.000000E+00    0.000000
  0.091267750  9.680762E-01  -87.397789  3.565784E-05  -66.471489  1.000000E+00    0.000000  1.000000E+00    0.000000
  0.091967500  9.683980E-01  -87.989670  2.342746E-05  -69.260063  1.000000E+00    0.000000  1.000000E+00    0.000000
  0.092667250  9.674079E-01  -88.602158  3.835262E-05  -64.614365  1.000000E+00    0.000000  1.000000E+00    0.000000
  0.093367000  9.685866E-01  -89.207718  2.867975E-05  -20.969610  1.000000E+00    0.000000  1.000000E+00    0.000000
  0.094066750  9.677126E-01  -89.843567  3.635094E-05  -75.933952  1.000000E+00    0.000000  1.000000E+00    0.000000
  0.094766500  9.687272E-01  -90.488297  2.641565E-05  -40.077759  1.000000E+00    0.000000  1.000000E+00    0.000000
  0.095466250  9.682632E-01  -91.111626  3.413080E-05  -51.906464  1.000000E+00    0.000000  1.000000E+00    0.000000
  0.096166000  9.681980E-01  -91.679543  5.819521E-05  -55.114101  1.000000E+00    0.000000  1.000000E+00    0.000000
  0.096865750  9.689946E-01  -92.289680  4.712158E-05  -43.839302  1.000000E+00    0.000000  1.000000E+00    0.000000
  0.097565500  9.684493E-01  -92.925659  5.088559E-05  -27.003445  1.000000E+00    0.000000  1.000000E+00    0.000000
  0.098265250  9.678589E-01  -93.523796  1.678958E-05  -63.209507  1.000000E+00    0.000000  1.000000E+00    0.000000
  0.098965000  9.685497E-01  -94.129593  4.839739E-05   -4.953963  1.000000E+00    0.000000  1.000000E+00    0.000000
  0.099664750  9.679538E-01  -94.727356  3.854999E-05  -32.662106  1.000000E+00    0.000000  1.000000E+00    0.000000
  0.100364500  9.696785E-01  -95.299240  6.164143E-05  -17.779991  1.000000E+00    0.000000  1.000000E+00    0.000000
  0.101064250  9.697796E-01  -95.905479  4.538530E-05   12.030417  1.000000E+00    0.000000  1.000000E+00    0.000000
  0.101764000  9.699186E-01  -96.493111  4.562174E-05  -20.382095  1.000000E+00    0.000000  1.000000E+00    0.000000
  0.102463750  9.691570E-01  -97.149315  5.335611E-05   16.558857  1.000000E+00    0.000000  1.000000E+00    0.000000
  0.103163500  9.686024E-01  -97.698547  3.715128E-05  -50.290871  1.000000E+00    0.000000  1.000000E+00    0.000000
  0.103863250  9.692851E-01  -98.288391  4.367022E-05  -13.511859  1.000000E+00    0.000000  1.000000E+00    0.000000
  0.104563000  9.685054E-01  -98.957382  4.262893E-05   24.151115  1.000000E+00    0.000000  1.000000E+00    0.000000
  0.105262750  9.686582E-01  -99.496300  3.833499E-05  -55.011765  1.000000E+00    0.000000  1.000000E+00    0.000000
  0.105962500  9.681104E-01 -100.114769  5.135388E-05   -1.041282  1.000000E+00    0.000000  1.000000E+00    0.000000
  0.106662250  9.674022E-01 -100.745132  6.800400E-05    6.719336  1.000000E+00    0.000000  1.000000E+00    0.000000
  0.107362000  9.676164E-01 -101.314453  3.812036E-05  -10.380859  1.000000E+00    0.000000  1.000000E+00    0.000000
  0.108061750  9.662615E-01 -101.993271  5.795160E-05    5.146221  1.000000E+00    0.000000  1.000000E+00    0.000000
  0.108761500  9.671459E-01 -102.518227  3.769040E-05   83.819138  1.000000E+00    0.000000  1.000000E+00    0.000000
  0.109461250  9.660428E-01 -103.176567  5.340371E-05  -10.850731  1.000000E+00    0.000000  1.000000E+00    0.000000
