! Anritsu VNA Master:                           Model: MS2025B
! SN:                                  1642059
! /bd0/PROE/TP1/MSLine3SC.s2p
! Existing Calibration Information:
! TYPE:                         Current Settings,       Active Cal Settings
! TIME:             	   04/16/2024 08:52:18 AM,    03/12/2018 11:45:53 AM
! INTERNAL TEMP:    	                   42.5 C,                    40.8 C
! # POINTS:         	                     2857,                      4001
! START FREQ:       	                1.000 MHz,                 1.000 MHz
! STOP FREQ:        	            1.999 486 GHz,                 2.800 GHz
! SOURCE POWER:     	                  Default,                   Default
! IFBW:             	                    1 kHz,                     1 kHz
! AVG FACTOR:       	                       1 ,                        1 
! REF PLANE 1:      	                     0 mm,                      0 mm
! REF PLANE 2:      	                     0 mm,                      0 mm
! CAL TYPE:         	             1P2P S11,S21,              1P2P S11,S21
! CAL METHOD:       	                     SOLT,                      SOLT
! CAL LINE TYPE:    	                     Coax,                      Coax
! DUT PORT 1:       	                         ,                          
! DUT PORT 2:       	                N-Conn(M),                 N-Conn(M)
! CAL STATUS:       	        OK: Accuracy High,                        --
# GHZ S MA R 50.0
! FREQ.GHZ       S11M         S11A         S21M         S21A         S12M         S12A         S22M         S22A
  0.001000000  9.963013E-01  179.545914  1.699369E-05  -89.267899  1.000000E+00    0.000000  1.000000E+00    0.000000
  0.001699750  9.958575E-01  178.864609  8.546211E-05  -30.044168  1.000000E+00    0.000000  1.000000E+00    0.000000
  0.002399500  9.966498E-01  178.121155  3.604436E-05  -28.992817  1.000000E+00    0.000000  1.000000E+00    0.000000
  0.003099250  9.955552E-01  177.471542  3.246830E-05  -44.214355  1.000000E+00    0.000000  1.000000E+00    0.000000
  0.003799000  9.967604E-01  176.833984  5.542910E-05  -55.810966  1.000000E+00    0.000000  1.000000E+00    0.000000
  0.004498750  9.942232E-01  176.211899  5.726131E-05  -36.050655  1.000000E+00    0.000000  1.000000E+00    0.000000
  0.005198500  9.933164E-01  175.635590  2.635750E-05  -76.236717  1.000000E+00    0.000000  1.000000E+00    0.000000
  0.005898250  9.950848E-01  175.024384  5.285516E-05  -31.693516  1.000000E+00    0.000000  1.000000E+00    0.000000
  0.006598000  9.938418E-01  174.462036  2.877647E-05  -44.199585  1.000000E+00    0.000000  1.000000E+00    0.000000
  0.007297750  9.935546E-01  173.790787  3.854161E-05  164.795532  1.000000E+00    0.000000  1.000000E+00    0.000000
  0.007997500  9.927261E-01  173.244095  8.834577E-05   15.148524  1.000000E+00    0.000000  1.000000E+00    0.000000
  0.008697250  9.938229E-01  172.638367  2.385330E-05    1.582710  1.000000E+00    0.000000  1.000000E+00    0.000000
  0.009397000  9.943464E-01  172.011368  5.169001E-05   -7.848604  1.000000E+00    0.000000  1.000000E+00    0.000000
  0.010096750  9.956062E-01  171.366959  9.968928E-05  -73.000130  1.000000E+00    0.000000  1.000000E+00    0.000000
  0.010796500  9.956542E-01  170.729599  4.634697E-05   -7.299078  1.000000E+00    0.000000  1.000000E+00    0.000000
  0.011496250  9.949282E-01  170.218948  3.549143E-05  -42.405121  1.000000E+00    0.000000  1.000000E+00    0.000000
  0.012196000  9.953575E-01  169.540482  7.854900E-05    0.828067  1.000000E+00    0.000000  1.000000E+00    0.000000
  0.012895750  9.948954E-01  169.015900  7.518274E-05  -27.545525  1.000000E+00    0.000000  1.000000E+00    0.000000
  0.013595500  9.955377E-01  168.462540  5.351056E-05   -7.905615  1.000000E+00    0.000000  1.000000E+00    0.000000
  0.014295250  9.955729E-01  167.795715  2.059790E-05   19.738047  1.000000E+00    0.000000  1.000000E+00    0.000000
  0.014995000  9.961792E-01  167.198059  6.005173E-05  -11.892864  1.000000E+00    0.000000  1.000000E+00    0.000000
  0.015694750  9.962181E-01  166.606949  3.697752E-05  -21.258713  1.000000E+00    0.000000  1.000000E+00    0.000000
  0.016394500  9.960905E-01  165.977356  6.242405E-05  -31.364918  1.000000E+00    0.000000  1.000000E+00    0.000000
  0.017094250  9.956911E-01  165.431000  5.608843E-05   10.691217  1.000000E+00    0.000000  1.000000E+00    0.000000
  0.017794000  9.955139E-01  164.818604  7.027615E-05  -12.052990  1.000000E+00    0.000000  1.000000E+00    0.000000
  0.018493750  9.958058E-01  164.258377  4.059135E-05  -81.769852  1.000000E+00    0.000000  1.000000E+00    0.000000
  0.019193500  9.955068E-01  163.625793  4.459494E-05  -16.995432  1.000000E+00    0.000000  1.000000E+00    0.000000
  0.019893250  9.958028E-01  163.074738  3.742349E-05   -6.889098  1.000000E+00    0.000000  1.000000E+00    0.000000
  0.020593000  9.967217E-01  162.441330  4.513172E-05  -13.964348  1.000000E+00    0.000000  1.000000E+00    0.000000
  0.021292750  9.958797E-01  161.831726  4.940645E-05   44.471165  1.000000E+00    0.000000  1.000000E+00    0.000000
  0.021992500  9.966918E-01  161.268875  7.386955E-06 -132.203354  1.000000E+00    0.000000  1.000000E+00    0.000000
  0.022692250  9.959498E-01  160.709686  2.179133E-05   -5.943413  1.000000E+00    0.000000  1.000000E+00    0.000000
  0.023392000  9.956770E-01  160.106567  4.093994E-05   15.606306  1.000000E+00    0.000000  1.000000E+00    0.000000
  0.024091750  9.958676E-01  159.517334  2.278574E-05   11.359295  1.000000E+00    0.000000  1.000000E+00    0.000000
  0.024791500  9.955747E-01  158.910889  1.608426E-05   23.842766  1.000000E+00    0.000000  1.000000E+00    0.000000
  0.025491250  1.000564E+00  158.482819  5.525799E-05    4.699712  1.000000E+00    0.000000  1.000000E+00    0.000000
  0.026191000  1.000746E+00  157.836517  4.908775E-05   12.993961  1.000000E+00    0.000000  1.000000E+00    0.000000
  0.026890750  1.000108E+00  157.222580  7.700443E-06   94.089241  1.000000E+00    0.000000  1.000000E+00    0.000000
  0.027590500  1.000070E+00  156.607483  1.831537E-05   -7.302791  1.000000E+00    0.000000  1.000000E+00    0.000000
  0.028290250  9.986581E-01  156.046646  2.469936E-05   91.290520  1.000000E+00    0.000000  1.000000E+00    0.000000
  0.028990000  9.987410E-01  155.371841  1.855506E-05   28.755869  1.000000E+00    0.000000  1.000000E+00    0.000000
  0.029689750  9.973117E-01  154.782379  6.122255E-05   46.028950  1.000000E+00    0.000000  1.000000E+00    0.000000
  0.030389500  9.968359E-01  154.152756  2.927272E-05   65.861496  1.000000E+00    0.000000  1.000000E+00    0.000000
  0.031089250  9.962267E-01  153.563812  2.038267E-05   24.259880  1.000000E+00    0.000000  1.000000E+00    0.000000
  0.031789000  9.954653E-01  152.967041  4.338748E-05   77.095039  1.000000E+00    0.000000  1.000000E+00    0.000000
  0.032488750  9.951119E-01  152.369354  4.597071E-05   53.670555  1.000000E+00    0.000000  1.000000E+00    0.000000
  0.033188500  9.946904E-01  151.712234  3.800912E-05   25.134718  1.000000E+00    0.000000  1.000000E+00    0.000000
  0.033888250  9.950200E-01  151.164078  3.179508E-05   79.512230  1.000000E+00    0.000000  1.000000E+00    0.000000
  0.034588000  9.936373E-01  150.596649  6.294641E-05   32.625084  1.000000E+00    0.000000  1.000000E+00    0.000000
  0.035287750  9.936621E-01  149.987015  4.720898E-05   38.770065  1.000000E+00    0.000000  1.000000E+00    0.000000
  0.035987500  9.925233E-01  149.378967  3.909802E-05   12.844984  1.000000E+00    0.000000  1.000000E+00    0.000000
  0.036687250  9.930730E-01  148.825607  4.259178E-05   60.256420  1.000000E+00    0.000000  1.000000E+00    0.000000
  0.037387000  9.920605E-01  148.197693  1.130861E-05   17.727869  1.000000E+00    0.000000  1.000000E+00    0.000000
  0.038086750  9.919640E-01  147.629333  4.009624E-05   65.588287  1.000000E+00    0.000000  1.000000E+00    0.000000
  0.038786500  9.913915E-01  147.041306  4.293210E-05   90.326340  1.000000E+00    0.000000  1.000000E+00    0.000000
  0.039486250  9.911973E-01  146.443024  8.277878E-06  128.808884  1.000000E+00    0.000000  1.000000E+00    0.000000
  0.040186000  9.903744E-01  145.836502  1.894823E-05   51.437191  1.000000E+00    0.000000  1.000000E+00    0.000000
  0.040885750  9.898321E-01  145.251984  4.703118E-05  112.438622  1.000000E+00    0.000000  1.000000E+00    0.000000
  0.041585500  9.899904E-01  144.625336  3.852694E-05   77.393982  1.000000E+00    0.000000  1.000000E+00    0.000000
  0.042285250  9.892308E-01  144.045105  2.383075E-05   92.167801  1.000000E+00    0.000000  1.000000E+00    0.000000
  0.042985000  9.888336E-01  143.426056  1.853200E-05   59.172565  1.000000E+00    0.000000  1.000000E+00    0.000000
  0.043684750  9.890150E-01  142.792618  5.590541E-05   79.235184  1.000000E+00    0.000000  1.000000E+00    0.000000
  0.044384500  9.889597E-01  142.193726  4.111273E-05   97.923782  1.000000E+00    0.000000  1.000000E+00    0.000000
  0.045084250  9.884947E-01  141.605713  4.159717E-05   80.513397  1.000000E+00    0.000000  1.000000E+00    0.000000
  0.045784000  9.879420E-01  140.997772  6.129439E-05  107.027229  1.000000E+00    0.000000  1.000000E+00    0.000000
  0.046483750  9.886619E-01  140.378540  3.659807E-05  142.098328  1.000000E+00    0.000000  1.000000E+00    0.000000
  0.047183500  9.881592E-01  139.797562  4.542703E-05  111.427277  1.000000E+00    0.000000  1.000000E+00    0.000000
  0.047883250  9.886688E-01  139.149887  2.270682E-05   79.314865  1.000000E+00    0.000000  1.000000E+00    0.000000
  0.048583000  9.891235E-01  138.575516  3.510210E-05  135.959976  1.000000E+00    0.000000  1.000000E+00    0.000000
  0.049282750  9.880377E-01  137.932953  3.500381E-05   93.600990  1.000000E+00    0.000000  1.000000E+00    0.000000
  0.049982500  9.943455E-01  137.498611  6.070341E-05  147.037521  1.000000E+00    0.000000  1.000000E+00    0.000000
  0.050682250  9.938323E-01  136.878250  4.871982E-05  103.563240  1.000000E+00    0.000000  1.000000E+00    0.000000
  0.051382000  9.948029E-01  136.257355  4.693189E-05  155.563370  1.000000E+00    0.000000  1.000000E+00    0.000000
  0.052081750  9.947350E-01  135.675552  8.762218E-05  136.507324  1.000000E+00    0.000000  1.000000E+00    0.000000
  0.052781500  9.955367E-01  135.053436  5.596828E-06   91.003014  1.000000E+00    0.000000  1.000000E+00    0.000000
  0.053481250  9.947652E-01  134.447601  5.131182E-05 -179.872940  1.000000E+00    0.000000  1.000000E+00    0.000000
  0.054181000  9.950401E-01  133.794952  7.045734E-05  125.994591  1.000000E+00    0.000000  1.000000E+00    0.000000
  0.054880750  9.951974E-01  133.260406  6.175253E-05  133.950089  1.000000E+00    0.000000  1.000000E+00    0.000000
  0.055580500  9.951854E-01  132.627304  5.194343E-05  149.406738  1.000000E+00    0.000000  1.000000E+00    0.000000
  0.056280250  9.948973E-01  132.047043  6.760425E-05  114.358482  1.000000E+00    0.000000  1.000000E+00    0.000000
  0.056980000  9.947011E-01  131.418228  8.271531E-06 -113.412300  1.000000E+00    0.000000  1.000000E+00    0.000000
  0.057679750  9.940112E-01  130.858322  7.629776E-05 -146.038818  1.000000E+00    0.000000  1.000000E+00    0.000000
  0.058379500  9.939569E-01  130.236984  1.100629E-04 -170.298859  1.000000E+00    0.000000  1.000000E+00    0.000000
  0.059079250  9.939835E-01  129.632858  7.230706E-05  174.372742  1.000000E+00    0.000000  1.000000E+00    0.000000
  0.059779000  9.931976E-01  129.046219  7.659249E-05 -178.207336  1.000000E+00    0.000000  1.000000E+00    0.000000
  0.060478750  9.934700E-01  128.435349  4.607253E-05 -166.840118  1.000000E+00    0.000000  1.000000E+00    0.000000
  0.061178500  9.925394E-01  127.851196  5.012575E-05  164.221451  1.000000E+00    0.000000  1.000000E+00    0.000000
  0.061878250  9.923776E-01  127.239182  5.194007E-05 -125.907188  1.000000E+00    0.000000  1.000000E+00    0.000000
  0.062578000  9.916546E-01  126.654205  5.808509E-05 -168.128311  1.000000E+00    0.000000  1.000000E+00    0.000000
  0.063277750  9.919639E-01  126.065155  5.642270E-05 -169.471619  1.000000E+00    0.000000  1.000000E+00    0.000000
  0.063977500  9.906366E-01  125.477158  8.446770E-05 -154.018936  1.000000E+00    0.000000  1.000000E+00    0.000000
  0.064677250  9.912271E-01  124.834167  9.703871E-05 -166.745468  1.000000E+00    0.000000  1.000000E+00    0.000000
  0.065377000  9.897302E-01  124.232903  7.658852E-05 -171.816803  1.000000E+00    0.000000  1.000000E+00    0.000000
  0.066076750  9.892112E-01  123.607010  3.941901E-05  153.691452  1.000000E+00    0.000000  1.000000E+00    0.000000
  0.066776500  9.893425E-01  123.010262  8.620491E-05 -135.912399  1.000000E+00    0.000000  1.000000E+00    0.000000
  0.067476250  9.882625E-01  122.410675  3.410858E-05  177.971405  1.000000E+00    0.000000  1.000000E+00    0.000000
  0.068176000  9.878262E-01  121.847321  5.830090E-05 -129.481613  1.000000E+00    0.000000  1.000000E+00    0.000000
  0.068875750  9.874489E-01  121.155220  4.107846E-05 -144.794785  1.000000E+00    0.000000  1.000000E+00    0.000000
  0.069575500  9.871382E-01  120.612122  5.115786E-05 -178.568817  1.000000E+00    0.000000  1.000000E+00    0.000000
  0.070275250  9.869432E-01  120.008339  8.320456E-05 -178.372528  1.000000E+00    0.000000  1.000000E+00    0.000000
  0.070975000  9.869266E-01  119.369949  9.327359E-05 -126.150452  1.000000E+00    0.000000  1.000000E+00    0.000000
  0.071674750  9.857891E-01  118.745132  1.525330E-04 -144.743637  1.000000E+00    0.000000  1.000000E+00    0.000000
  0.072374500  9.853053E-01  118.132736  3.553953E-05  160.239716  1.000000E+00    0.000000  1.000000E+00    0.000000
  0.073074250  9.844898E-01  117.469376  5.857603E-05 -115.410484  1.000000E+00    0.000000  1.000000E+00    0.000000
  0.073774000  9.846941E-01  116.831726  6.080521E-05 -136.881165  1.000000E+00    0.000000  1.000000E+00    0.000000
  0.074473750  9.843976E-01  116.198677  9.020961E-05 -125.133316  1.000000E+00    0.000000  1.000000E+00    0.000000
  0.075173500  9.839820E-01  115.574776  5.336785E-05 -128.522263  1.000000E+00    0.000000  1.000000E+00    0.000000
  0.075873250  9.836067E-01  114.977440  7.275770E-05 -157.084152  1.000000E+00    0.000000  1.000000E+00    0.000000
  0.076573000  9.836372E-01  114.327751  8.976442E-05 -123.525871  1.000000E+00    0.000000  1.000000E+00    0.000000
  0.077272750  9.827810E-01  113.660492  7.120830E-05  -94.933342  1.000000E+00    0.000000  1.000000E+00    0.000000
  0.077972500  9.831360E-01  113.029587  7.543287E-05 -121.158745  1.000000E+00    0.000000  1.000000E+00    0.000000
  0.078672250  9.824408E-01  112.391228  5.815219E-05 -113.601219  1.000000E+00    0.000000  1.000000E+00    0.000000
  0.079372000  9.831674E-01  111.755081  9.948138E-05 -113.561180  1.000000E+00    0.000000  1.000000E+00    0.000000
  0.080071750  9.829154E-01  111.108971  9.816627E-05  -94.208321  1.000000E+00    0.000000  1.000000E+00    0.000000
  0.080771500  9.833708E-01  110.438698  3.970488E-05 -141.063828  1.000000E+00    0.000000  1.000000E+00    0.000000
  0.081471250  9.829304E-01  109.830490  6.147834E-05  -75.820946  1.000000E+00    0.000000  1.000000E+00    0.000000
  0.082171000  9.824508E-01  109.170959  4.256166E-05  -99.315948  1.000000E+00    0.000000  1.000000E+00    0.000000
  0.082870750  9.817109E-01  108.528229  4.833387E-05  -68.354324  1.000000E+00    0.000000  1.000000E+00    0.000000
  0.083570500  9.812177E-01  107.883507  4.759590E-05 -129.394608  1.000000E+00    0.000000  1.000000E+00    0.000000
  0.084270250  9.819134E-01  107.270035  5.087250E-05 -102.171631  1.000000E+00    0.000000  1.000000E+00    0.000000
  0.084970000  9.821724E-01  106.602661  7.986383E-05  -85.394829  1.000000E+00    0.000000  1.000000E+00    0.000000
  0.085669750  9.821293E-01  105.938560  5.429154E-05 -111.651825  1.000000E+00    0.000000  1.000000E+00    0.000000
  0.086369500  9.825183E-01  105.270432  3.712553E-05 -102.381813  1.000000E+00    0.000000  1.000000E+00    0.000000
  0.087069250  9.824333E-01  104.648193  2.709221E-05  -69.619804  1.000000E+00    0.000000  1.000000E+00    0.000000
  0.087769000  9.831847E-01  104.018990  5.644808E-05  -75.085876  1.000000E+00    0.000000  1.000000E+00    0.000000
  0.088468750  9.836221E-01  103.395187  5.428090E-05  -29.870832  1.000000E+00    0.000000  1.000000E+00    0.000000
  0.089168500  9.827030E-01  102.711327  7.778134E-05  -46.076710  1.000000E+00    0.000000  1.000000E+00    0.000000
  0.089868250  9.826980E-01  102.063110  5.945699E-05  -60.118431  1.000000E+00    0.000000  1.000000E+00    0.000000
  0.090568000  9.833313E-01  101.432182  5.291596E-05  -57.012005  1.000000E+00    0.000000  1.000000E+00    0.000000
  0.091267750  9.839668E-01  100.844048  4.928024E-05  -49.498405  1.000000E+00    0.000000  1.000000E+00    0.000000
  0.091967500  9.839769E-01  100.181824  5.479660E-05 -103.906807  1.000000E+00    0.000000  1.000000E+00    0.000000
  0.092667250  9.842367E-01   99.590736  6.797798E-05  -92.912086  1.000000E+00    0.000000  1.000000E+00    0.000000
  0.093367000  9.841278E-01   98.924706  4.764370E-05  -29.250101  1.000000E+00    0.000000  1.000000E+00    0.000000
  0.094066750  9.840688E-01   98.326340  4.069679E-05  -83.991325  1.000000E+00    0.000000  1.000000E+00    0.000000
  0.094766500  9.846972E-01   97.621162  4.719407E-05  -55.979481  1.000000E+00    0.000000  1.000000E+00    0.000000
  0.095466250  9.846977E-01   97.003784  7.358775E-05  -32.010220  1.000000E+00    0.000000  1.000000E+00    0.000000
  0.096166000  9.853071E-01   96.382553  2.961918E-05  -63.155609  1.000000E+00    0.000000  1.000000E+00    0.000000
  0.096865750  9.843979E-01   95.742409  4.917001E-05  -36.579559  1.000000E+00    0.000000  1.000000E+00    0.000000
  0.097565500  9.850577E-01   95.143570  4.597356E-05  -42.411682  1.000000E+00    0.000000  1.000000E+00    0.000000
  0.098265250  9.857297E-01   94.544250  2.655089E-05   -3.651108  1.000000E+00    0.000000  1.000000E+00    0.000000
  0.098965000  9.846334E-01   93.885620  2.342955E-05  -14.449739  1.000000E+00    0.000000  1.000000E+00    0.000000
  0.099664750  9.839968E-01   93.276764  1.393959E-05  -59.456654  1.000000E+00    0.000000  1.000000E+00    0.000000
  0.100364500  9.876061E-01   92.652435  3.831961E-05  -29.386206  1.000000E+00    0.000000  1.000000E+00    0.000000
  0.101064250  9.874160E-01   92.069504  3.096238E-05  -10.807364  1.000000E+00    0.000000  1.000000E+00    0.000000
  0.101764000  9.873607E-01   91.442078  3.417912E-05   -9.223508  1.000000E+00    0.000000  1.000000E+00    0.000000
  0.102463750  9.860364E-01   90.829697  1.771975E-05   18.731569  1.000000E+00    0.000000  1.000000E+00    0.000000
  0.103163500  9.849465E-01   90.173798  2.823045E-05  -26.604898  1.000000E+00    0.000000  1.000000E+00    0.000000
  0.103863250  9.863117E-01   89.571068  3.116858E-05  -24.706223  1.000000E+00    0.000000  1.000000E+00    0.000000
  0.104563000  9.847848E-01   88.920479  2.839794E-05    0.766026  1.000000E+00    0.000000  1.000000E+00    0.000000
  0.105262750  9.863683E-01   88.384026  3.032415E-05   -3.873021  1.000000E+00    0.000000  1.000000E+00    0.000000
  0.105962500  9.853201E-01   87.702461  2.706941E-05  -15.560139  1.000000E+00    0.000000  1.000000E+00    0.000000
  0.106662250  9.842317E-01   87.075615  2.170359E-05   35.265778  1.000000E+00    0.000000  1.000000E+00    0.000000
  0.107362000  9.851025E-01   86.488449  2.997727E-05   26.462650  1.000000E+00    0.000000  1.000000E+00    0.000000
  0.108061750  9.836234E-01   85.804092  2.105650E-05  -18.779028  1.000000E+00    0.000000  1.000000E+00    0.000000
  0.108761500  9.832984E-01   85.244949  3.739887E-05   -0.865615  1.000000E+00    0.000000  1.000000E+00    0.000000
  0.109461250  9.825505E-01   84.582726  1.702105E-05   -7.133358  1.000000E+00    0.000000  1.000000E+00    0.000000
