! Anritsu VNA Master:                           Model: MS2025B
! SN:                                  1642059
! /bd0/PROE/TP1/MSLine4SC.s2p
! Existing Calibration Information:
! TYPE:                         Current Settings,       Active Cal Settings
! TIME:             	   04/16/2024 08:56:18 AM,    03/12/2018 11:45:53 AM
! INTERNAL TEMP:    	                   42.8 C,                    40.8 C
! # POINTS:         	                     2857,                      4001
! START FREQ:       	                1.000 MHz,                 1.000 MHz
! STOP FREQ:        	            1.999 486 GHz,                 2.800 GHz
! SOURCE POWER:     	                  Default,                   Default
! IFBW:             	                    1 kHz,                     1 kHz
! AVG FACTOR:       	                       1 ,                        1 
! REF PLANE 1:      	                     0 mm,                      0 mm
! REF PLANE 2:      	                     0 mm,                      0 mm
! CAL TYPE:         	             1P2P S11,S21,              1P2P S11,S21
! CAL METHOD:       	                     SOLT,                      SOLT
! CAL LINE TYPE:    	                     Coax,                      Coax
! DUT PORT 1:       	                         ,                          
! DUT PORT 2:       	                N-Conn(M),                 N-Conn(M)
! CAL STATUS:       	        OK: Accuracy High,                        --
# GHZ S MA R 50.0
! FREQ.GHZ       S11M         S11A         S21M         S21A         S12M         S12A         S22M         S22A
  0.001000000  9.897076E-01  178.660156  5.008248E-05  -88.933418  1.000000E+00    0.000000  1.000000E+00    0.000000
  0.001699750  9.892135E-01  177.407547  9.262101E-05  -81.131889  1.000000E+00    0.000000  1.000000E+00    0.000000
  0.002399500  9.882677E-01  176.076920  2.952955E-05  -61.218754  1.000000E+00    0.000000  1.000000E+00    0.000000
  0.003099250  9.882213E-01  174.796066  1.391925E-05  -78.384552  1.000000E+00    0.000000  1.000000E+00    0.000000
  0.003799000  9.891821E-01  173.532623  4.589766E-05  -95.425995  1.000000E+00    0.000000  1.000000E+00    0.000000
  0.004498750  9.859309E-01  172.306580  5.059521E-05  -25.695509  1.000000E+00    0.000000  1.000000E+00    0.000000
  0.005198500  9.847171E-01  171.125259  5.915809E-05  -32.390835  1.000000E+00    0.000000  1.000000E+00    0.000000
  0.005898250  9.865792E-01  169.912155  4.463429E-05  -58.470566  1.000000E+00    0.000000  1.000000E+00    0.000000
  0.006598000  9.854829E-01  168.731812  2.556436E-05  -81.720306  1.000000E+00    0.000000  1.000000E+00    0.000000
  0.007297750  9.837630E-01  167.535339  3.279675E-05  -28.571478  1.000000E+00    0.000000  1.000000E+00    0.000000
  0.007997500  9.834614E-01  166.332993  4.772248E-05  -89.614037  1.000000E+00    0.000000  1.000000E+00    0.000000
  0.008697250  9.849967E-01  165.207535  7.008683E-05  -36.425552  1.000000E+00    0.000000  1.000000E+00    0.000000
  0.009397000  9.860198E-01  163.918793  4.552236E-05   39.199406  1.000000E+00    0.000000  1.000000E+00    0.000000
  0.010096750  9.855219E-01  162.766083  6.249838E-05   -8.562370  1.000000E+00    0.000000  1.000000E+00    0.000000
  0.010796500  9.867178E-01  161.664520  4.594723E-05   -6.464353  1.000000E+00    0.000000  1.000000E+00    0.000000
  0.011496250  9.860699E-01  160.479401  5.192321E-05  -24.978088  1.000000E+00    0.000000  1.000000E+00    0.000000
  0.012196000  9.855488E-01  159.264053  6.945983E-05  -29.457872  1.000000E+00    0.000000  1.000000E+00    0.000000
  0.012895750  9.859846E-01  158.135208  7.548584E-05  -36.640915  1.000000E+00    0.000000  1.000000E+00    0.000000
  0.013595500  9.866506E-01  156.983856  3.393630E-05  -88.672859  1.000000E+00    0.000000  1.000000E+00    0.000000
  0.014295250  9.856421E-01  155.758331  7.161147E-05   22.969902  1.000000E+00    0.000000  1.000000E+00    0.000000
  0.014995000  9.862713E-01  154.697739  1.613273E-05  -40.361568  1.000000E+00    0.000000  1.000000E+00    0.000000
  0.015694750  9.863848E-01  153.519836  7.845214E-05  -20.684887  1.000000E+00    0.000000  1.000000E+00    0.000000
  0.016394500  9.858434E-01  152.409790  6.291078E-05    0.336020  1.000000E+00    0.000000  1.000000E+00    0.000000
  0.017094250  9.859205E-01  151.284698  6.181253E-05  -63.719902  1.000000E+00    0.000000  1.000000E+00    0.000000
  0.017794000  9.856519E-01  150.205780  4.894656E-05  -12.590692  1.000000E+00    0.000000  1.000000E+00    0.000000
  0.018493750  9.863149E-01  149.130417  6.656884E-05  -22.042589  1.000000E+00    0.000000  1.000000E+00    0.000000
  0.019193500  9.855594E-01  147.975235  5.463952E-05  -23.185400  1.000000E+00    0.000000  1.000000E+00    0.000000
  0.019893250  9.858742E-01  146.902008  1.666918E-05  -34.007820  1.000000E+00    0.000000  1.000000E+00    0.000000
  0.020593000  9.859059E-01  145.742386  4.612605E-05  -14.731012  1.000000E+00    0.000000  1.000000E+00    0.000000
  0.021292750  9.851709E-01  144.625900  5.390577E-05  -18.797216  1.000000E+00    0.000000  1.000000E+00    0.000000
  0.021992500  9.857886E-01  143.577072  2.039465E-05    1.658899  1.000000E+00    0.000000  1.000000E+00    0.000000
  0.022692250  9.848238E-01  142.493668  5.076508E-05  -15.318094  1.000000E+00    0.000000  1.000000E+00    0.000000
  0.023392000  9.837483E-01  141.391083  3.129116E-05   16.321640  1.000000E+00    0.000000  1.000000E+00    0.000000
  0.024091750  9.842430E-01  140.344757  4.019156E-05  -31.696272  1.000000E+00    0.000000  1.000000E+00    0.000000
  0.024791500  9.837031E-01  139.271500  6.780287E-05    0.190311  1.000000E+00    0.000000  1.000000E+00    0.000000
  0.025491250  9.889624E-01  138.362656  4.513386E-05   -2.261793  1.000000E+00    0.000000  1.000000E+00    0.000000
  0.026191000  9.889925E-01  137.230347  5.360671E-05    9.081747  1.000000E+00    0.000000  1.000000E+00    0.000000
  0.026890750  9.883532E-01  136.157959  2.585140E-05    4.101224  1.000000E+00    0.000000  1.000000E+00    0.000000
  0.027590500  9.881852E-01  135.094177  5.568647E-05    8.640871  1.000000E+00    0.000000  1.000000E+00    0.000000
  0.028290250  9.867634E-01  134.051804  2.359152E-05  -16.538570  1.000000E+00    0.000000  1.000000E+00    0.000000
  0.028990000  9.862394E-01  132.964371  2.206442E-05   32.626617  1.000000E+00    0.000000  1.000000E+00    0.000000
  0.029689750  9.854519E-01  131.918304  2.882264E-05   24.938221  1.000000E+00    0.000000  1.000000E+00    0.000000
  0.030389500  9.843436E-01  130.879684  6.362286E-05   72.657021  1.000000E+00    0.000000  1.000000E+00    0.000000
  0.031089250  9.835001E-01  129.843384  2.699599E-05   26.835941  1.000000E+00    0.000000  1.000000E+00    0.000000
  0.031789000  9.829977E-01  128.841888  2.956630E-05   26.959724  1.000000E+00    0.000000  1.000000E+00    0.000000
  0.032488750  9.822080E-01  127.799095  6.171207E-05   33.024021  1.000000E+00    0.000000  1.000000E+00    0.000000
  0.033188500  9.819049E-01  126.752632  2.958873E-05   54.789333  1.000000E+00    0.000000  1.000000E+00    0.000000
  0.033888250  9.815841E-01  125.760994  4.443480E-05   41.289974  1.000000E+00    0.000000  1.000000E+00    0.000000
  0.034588000  9.806526E-01  124.814957  3.769265E-05   27.067566  1.000000E+00    0.000000  1.000000E+00    0.000000
  0.035287750  9.803911E-01  123.799133  3.949448E-05   89.748161  1.000000E+00    0.000000  1.000000E+00    0.000000
  0.035987500  9.794217E-01  122.828629  3.874659E-05   62.991009  1.000000E+00    0.000000  1.000000E+00    0.000000
  0.036687250  9.795472E-01  121.866982  3.629930E-05   59.227001  1.000000E+00    0.000000  1.000000E+00    0.000000
  0.037387000  9.789842E-01  120.872055  2.153900E-05   40.283596  1.000000E+00    0.000000  1.000000E+00    0.000000
  0.038086750  9.787013E-01  119.897522  3.774382E-05   32.848709  1.000000E+00    0.000000  1.000000E+00    0.000000
  0.038786500  9.782697E-01  118.956108  5.947421E-05   61.905312  1.000000E+00    0.000000  1.000000E+00    0.000000
  0.039486250  9.779335E-01  117.973526  1.723956E-05   10.974225  1.000000E+00    0.000000  1.000000E+00    0.000000
  0.040186000  9.774163E-01  117.046738  2.615999E-05   74.385948  1.000000E+00    0.000000  1.000000E+00    0.000000
  0.040885750  9.770707E-01  116.107277  2.561625E-06   36.925411  1.000000E+00    0.000000  1.000000E+00    0.000000
  0.041585500  9.774500E-01  115.120476  3.129215E-05   92.952904  1.000000E+00    0.000000  1.000000E+00    0.000000
  0.042285250  9.769100E-01  114.225922  2.037770E-05   71.615974  1.000000E+00    0.000000  1.000000E+00    0.000000
  0.042985000  9.773484E-01  113.282524  4.352678E-05   86.989273  1.000000E+00    0.000000  1.000000E+00    0.000000
  0.043684750  9.769622E-01  112.339226  2.375172E-05   78.289032  1.000000E+00    0.000000  1.000000E+00    0.000000
  0.044384500  9.775798E-01  111.429771  2.938092E-05  131.900177  1.000000E+00    0.000000  1.000000E+00    0.000000
  0.045084250  9.777467E-01  110.517578  5.344864E-05   74.918556  1.000000E+00    0.000000  1.000000E+00    0.000000
  0.045784000  9.781690E-01  109.663353  4.422012E-05   81.599632  1.000000E+00    0.000000  1.000000E+00    0.000000
  0.046483750  9.777292E-01  108.754967  4.083072E-06  115.771172  1.000000E+00    0.000000  1.000000E+00    0.000000
  0.047183500  9.779839E-01  107.918488  6.221564E-05  112.747925  1.000000E+00    0.000000  1.000000E+00    0.000000
  0.047883250  9.779893E-01  107.028404  6.909717E-05  139.901535  1.000000E+00    0.000000  1.000000E+00    0.000000
  0.048583000  9.790011E-01  106.203682  4.331696E-05  127.097618  1.000000E+00    0.000000  1.000000E+00    0.000000
  0.049282750  9.787765E-01  105.298256  7.052396E-05  111.506714  1.000000E+00    0.000000  1.000000E+00    0.000000
  0.049982500  9.842944E-01  104.603401  6.944842E-05  127.116203  1.000000E+00    0.000000  1.000000E+00    0.000000
  0.050682250  9.854841E-01  103.746124  7.072891E-05   95.635231  1.000000E+00    0.000000  1.000000E+00    0.000000
  0.051382000  9.861207E-01  102.883636  6.897165E-05  127.016151  1.000000E+00    0.000000  1.000000E+00    0.000000
  0.052081750  9.852977E-01  102.063210  6.670093E-05  110.958435  1.000000E+00    0.000000  1.000000E+00    0.000000
  0.052781500  9.860300E-01  101.211433  6.479100E-05  160.415726  1.000000E+00    0.000000  1.000000E+00    0.000000
  0.053481250  9.853426E-01  100.482407  6.977688E-05  105.589264  1.000000E+00    0.000000  1.000000E+00    0.000000
  0.054181000  9.858419E-01   99.581924  7.846752E-05  140.816559  1.000000E+00    0.000000  1.000000E+00    0.000000
  0.054880750  9.863646E-01   98.811943  5.467814E-05  148.060776  1.000000E+00    0.000000  1.000000E+00    0.000000
  0.055580500  9.857039E-01   98.038361  6.286767E-05  169.712952  1.000000E+00    0.000000  1.000000E+00    0.000000
  0.056280250  9.856713E-01   97.243454  5.794548E-05  167.003342  1.000000E+00    0.000000  1.000000E+00    0.000000
  0.056980000  9.854512E-01   96.440948  6.061179E-05 -165.960358  1.000000E+00    0.000000  1.000000E+00    0.000000
  0.057679750  9.845351E-01   95.668373  6.967531E-05  151.178253  1.000000E+00    0.000000  1.000000E+00    0.000000
  0.058379500  9.847467E-01   94.840866  7.733231E-05 -177.672241  1.000000E+00    0.000000  1.000000E+00    0.000000
  0.059079250  9.848561E-01   94.097282  9.387880E-05  169.554092  1.000000E+00    0.000000  1.000000E+00    0.000000
  0.059779000  9.847942E-01   93.332420  7.006548E-05  169.887924  1.000000E+00    0.000000  1.000000E+00    0.000000
  0.060478750  9.845537E-01   92.564041  6.041168E-05 -179.450180  1.000000E+00    0.000000  1.000000E+00    0.000000
  0.061178500  9.836938E-01   91.811790  7.112101E-05 -120.384941  1.000000E+00    0.000000  1.000000E+00    0.000000
  0.061878250  9.831315E-01   91.079613  3.094800E-05  123.423103  1.000000E+00    0.000000  1.000000E+00    0.000000
  0.062578000  9.818512E-01   90.394142  4.435416E-05  111.272545  1.000000E+00    0.000000  1.000000E+00    0.000000
  0.063277750  9.824766E-01   89.620079  4.892961E-05 -152.218826  1.000000E+00    0.000000  1.000000E+00    0.000000
  0.063977500  9.821718E-01   88.852890  1.214863E-04  178.952820  1.000000E+00    0.000000  1.000000E+00    0.000000
  0.064677250  9.816183E-01   88.134453  2.484488E-05 -138.500961  1.000000E+00    0.000000  1.000000E+00    0.000000
  0.065377000  9.803834E-01   87.438713  5.157592E-05  147.970749  1.000000E+00    0.000000  1.000000E+00    0.000000
  0.066076750  9.798808E-01   86.705093  5.695668E-05 -154.560928  1.000000E+00    0.000000  1.000000E+00    0.000000
  0.066776500  9.801153E-01   85.984268  1.214893E-04  174.055283  1.000000E+00    0.000000  1.000000E+00    0.000000
  0.067476250  9.793979E-01   85.260490  7.177803E-05 -177.265533  1.000000E+00    0.000000  1.000000E+00    0.000000
  0.068176000  9.791620E-01   84.597832  1.227787E-04  177.236877  1.000000E+00    0.000000  1.000000E+00    0.000000
  0.068875750  9.784712E-01   83.823875  8.128084E-05 -166.361374  1.000000E+00    0.000000  1.000000E+00    0.000000
  0.069575500  9.772463E-01   83.195091  3.219513E-05  108.531403  1.000000E+00    0.000000  1.000000E+00    0.000000
  0.070275250  9.775513E-01   82.484627  7.740903E-05 -116.643143  1.000000E+00    0.000000  1.000000E+00    0.000000
  0.070975000  9.769410E-01   81.758995  9.157004E-05 -171.335922  1.000000E+00    0.000000  1.000000E+00    0.000000
  0.071674750  9.770854E-01   81.060249  1.013974E-04 -116.451004  1.000000E+00    0.000000  1.000000E+00    0.000000
  0.072374500  9.771454E-01   80.362610  9.237519E-05  178.118637  1.000000E+00    0.000000  1.000000E+00    0.000000
  0.073074250  9.767609E-01   79.664467  3.288721E-05 -147.178177  1.000000E+00    0.000000  1.000000E+00    0.000000
  0.073774000  9.769571E-01   78.971870  5.711130E-05 -108.815460  1.000000E+00    0.000000  1.000000E+00    0.000000
  0.074473750  9.765977E-01   78.319748  8.605396E-05 -135.387329  1.000000E+00    0.000000  1.000000E+00    0.000000
  0.075173500  9.755591E-01   77.604507  5.965111E-05 -131.596359  1.000000E+00    0.000000  1.000000E+00    0.000000
  0.075873250  9.754559E-01   76.927879  7.097919E-05 -162.232040  1.000000E+00    0.000000  1.000000E+00    0.000000
  0.076573000  9.764084E-01   76.268875  5.309895E-05 -111.226288  1.000000E+00    0.000000  1.000000E+00    0.000000
  0.077272750  9.757637E-01   75.603485  7.343026E-05  -93.608299  1.000000E+00    0.000000  1.000000E+00    0.000000
  0.077972500  9.766553E-01   74.968842  6.155955E-05 -125.112671  1.000000E+00    0.000000  1.000000E+00    0.000000
  0.078672250  9.770070E-01   74.324150  5.357626E-05 -120.351051  1.000000E+00    0.000000  1.000000E+00    0.000000
  0.079372000  9.773780E-01   73.662338  7.067380E-05 -140.845078  1.000000E+00    0.000000  1.000000E+00    0.000000
  0.080071750  9.773535E-01   72.981400  5.772425E-05 -126.971512  1.000000E+00    0.000000  1.000000E+00    0.000000
  0.080771500  9.783806E-01   72.357780  2.891337E-05  -70.731415  1.000000E+00    0.000000  1.000000E+00    0.000000
  0.081471250  9.783735E-01   71.721146  4.019972E-05  -93.046700  1.000000E+00    0.000000  1.000000E+00    0.000000
  0.082171000  9.780267E-01   71.095169  8.583072E-05  -92.427406  1.000000E+00    0.000000  1.000000E+00    0.000000
  0.082870750  9.786602E-01   70.511459  5.058368E-05  -98.326279  1.000000E+00    0.000000  1.000000E+00    0.000000
  0.083570500  9.784533E-01   69.879417  3.604179E-05 -131.629150  1.000000E+00    0.000000  1.000000E+00    0.000000
  0.084270250  9.793060E-01   69.313576  4.285905E-05  -86.629280  1.000000E+00    0.000000  1.000000E+00    0.000000
  0.084970000  9.794637E-01   68.692802  6.850871E-05  -69.916458  1.000000E+00    0.000000  1.000000E+00    0.000000
  0.085669750  9.793193E-01   68.114761  7.763055E-05  -40.260002  1.000000E+00    0.000000  1.000000E+00    0.000000
  0.086369500  9.798880E-01   67.520119  1.991463E-05  -68.191856  1.000000E+00    0.000000  1.000000E+00    0.000000
  0.087069250  9.802582E-01   66.927490  6.679753E-05  -89.818291  1.000000E+00    0.000000  1.000000E+00    0.000000
  0.087769000  9.806423E-01   66.384392  2.586908E-05  -76.994469  1.000000E+00    0.000000  1.000000E+00    0.000000
  0.088468750  9.807419E-01   65.799660  2.180481E-05  -69.849785  1.000000E+00    0.000000  1.000000E+00    0.000000
  0.089168500  9.806244E-01   65.239067  4.822019E-05 -108.723557  1.000000E+00    0.000000  1.000000E+00    0.000000
  0.089868250  9.806498E-01   64.668938  6.226184E-05  -92.531082  1.000000E+00    0.000000  1.000000E+00    0.000000
  0.090568000  9.809566E-01   64.126457  3.831314E-05  -31.579554  1.000000E+00    0.000000  1.000000E+00    0.000000
  0.091267750  9.816934E-01   63.592598  2.043789E-05 -134.154709  1.000000E+00    0.000000  1.000000E+00    0.000000
  0.091967500  9.812886E-01   63.044598  5.271499E-05 -105.061516  1.000000E+00    0.000000  1.000000E+00    0.000000
  0.092667250  9.822357E-01   62.523796  4.202236E-05  -84.966454  1.000000E+00    0.000000  1.000000E+00    0.000000
  0.093367000  9.818358E-01   61.988235  2.868359E-05  -20.133051  1.000000E+00    0.000000  1.000000E+00    0.000000
  0.094066750  9.816201E-01   61.474133  3.753385E-05  -50.255974  1.000000E+00    0.000000  1.000000E+00    0.000000
  0.094766500  9.825091E-01   60.896259  5.884041E-05  -89.576027  1.000000E+00    0.000000  1.000000E+00    0.000000
  0.095466250  9.826151E-01   60.377247  2.791178E-05  -55.960304  1.000000E+00    0.000000  1.000000E+00    0.000000
  0.096166000  9.826623E-01   59.840790  2.050701E-05  -87.363182  1.000000E+00    0.000000  1.000000E+00    0.000000
  0.096865750  9.820321E-01   59.336533  4.237630E-06  -20.141432  1.000000E+00    0.000000  1.000000E+00    0.000000
  0.097565500  9.821294E-01   58.832973  1.159378E-06   73.358879  1.000000E+00    0.000000  1.000000E+00    0.000000
  0.098265250  9.830114E-01   58.302441  3.336944E-05   -3.516746  1.000000E+00    0.000000  1.000000E+00    0.000000
  0.098965000  9.820112E-01   57.789692  1.915686E-05  -12.439923  1.000000E+00    0.000000  1.000000E+00    0.000000
  0.099664750  9.818966E-01   57.319283  3.295677E-05  -20.693697  1.000000E+00    0.000000  1.000000E+00    0.000000
  0.100364500  9.852604E-01   56.886578  3.496470E-05   30.222486  1.000000E+00    0.000000  1.000000E+00    0.000000
  0.101064250  9.847828E-01   56.413723  2.120291E-05   -7.477448  1.000000E+00    0.000000  1.000000E+00    0.000000
  0.101764000  9.848645E-01   55.933399  2.122253E-05  -37.280640  1.000000E+00    0.000000  1.000000E+00    0.000000
  0.102463750  9.839004E-01   55.410240  4.248106E-05    7.338429  1.000000E+00    0.000000  1.000000E+00    0.000000
  0.103163500  9.833151E-01   54.949081  2.513182E-05  -33.584030  1.000000E+00    0.000000  1.000000E+00    0.000000
  0.103863250  9.839350E-01   54.501431  2.685902E-05   25.201851  1.000000E+00    0.000000  1.000000E+00    0.000000
  0.104563000  9.825112E-01   53.963779  2.327536E-05   -2.281955  1.000000E+00    0.000000  1.000000E+00    0.000000
  0.105262750  9.836688E-01   53.650684  2.955016E-05   12.639864  1.000000E+00    0.000000  1.000000E+00    0.000000
  0.105962500  9.830262E-01   53.097580  2.660912E-05  -17.612591  1.000000E+00    0.000000  1.000000E+00    0.000000
  0.106662250  9.827083E-01   52.587254  4.388082E-05   35.724815  1.000000E+00    0.000000  1.000000E+00    0.000000
  0.107362000  9.823204E-01   52.189304  2.215374E-05  -10.833554  1.000000E+00    0.000000  1.000000E+00    0.000000
  0.108061750  9.817695E-01   51.689972  9.952031E-06  136.299072  1.000000E+00    0.000000  1.000000E+00    0.000000
  0.108761500  9.807267E-01   51.304207  3.058157E-05    8.074376  1.000000E+00    0.000000  1.000000E+00    0.000000
  0.109461250  9.808391E-01   50.822388  3.925485E-05   38.933964  1.000000E+00    0.000000  1.000000E+00    0.000000
