! Anritsu VNA Master:                           Model: MS2025B
! SN:                                  1642059
! /bd0/PROE/TP1/MSLine3SC_2.s2p
! Existing Calibration Information:
! TYPE:                         Current Settings,       Active Cal Settings
! TIME:             	   04/16/2024 08:55:33 AM,    03/12/2018 11:45:53 AM
! INTERNAL TEMP:    	                   42.5 C,                    40.8 C
! # POINTS:         	                     2857,                      4001
! START FREQ:       	                1.000 MHz,                 1.000 MHz
! STOP FREQ:        	            1.999 486 GHz,                 2.800 GHz
! SOURCE POWER:     	                  Default,                   Default
! IFBW:             	                    1 kHz,                     1 kHz
! AVG FACTOR:       	                       1 ,                        1 
! REF PLANE 1:      	                     0 mm,                      0 mm
! REF PLANE 2:      	                     0 mm,                      0 mm
! CAL TYPE:         	             1P2P S11,S21,              1P2P S11,S21
! CAL METHOD:       	                     SOLT,                      SOLT
! CAL LINE TYPE:    	                     Coax,                      Coax
! DUT PORT 1:       	                         ,                          
! DUT PORT 2:       	                N-Conn(M),                 N-Conn(M)
! CAL STATUS:       	        OK: Accuracy High,                        --
# GHZ S MA R 50.0
! FREQ.GHZ       S11M         S11A         S21M         S21A         S12M         S12A         S22M         S22A
  0.001000000  9.895350E-01  178.634506  3.219906E-05  -82.515144  1.000000E+00    0.000000  1.000000E+00    0.000000
  0.001699750  9.898728E-01  177.484665  4.780509E-05 -150.687866  1.000000E+00    0.000000  1.000000E+00    0.000000
  0.002399500  9.888588E-01  176.073792  8.597324E-05  -76.144333  1.000000E+00    0.000000  1.000000E+00    0.000000
  0.003099250  9.872631E-01  174.780258  4.679613E-05  -71.380051  1.000000E+00    0.000000  1.000000E+00    0.000000
  0.003799000  9.891184E-01  173.503983  3.378947E-05  -64.424164  1.000000E+00    0.000000  1.000000E+00    0.000000
  0.004498750  9.862410E-01  172.318985  5.477358E-05  -23.199305  1.000000E+00    0.000000  1.000000E+00    0.000000
  0.005198500  9.847901E-01  171.119156  5.999985E-05  -26.402084  1.000000E+00    0.000000  1.000000E+00    0.000000
  0.005898250  9.861804E-01  169.900421  5.449811E-05  -21.756134  1.000000E+00    0.000000  1.000000E+00    0.000000
  0.006598000  9.851551E-01  168.752213  4.271035E-05  -52.125217  1.000000E+00    0.000000  1.000000E+00    0.000000
  0.007297750  9.843068E-01  167.540482  3.104435E-05  -57.346291  1.000000E+00    0.000000  1.000000E+00    0.000000
  0.007997500  9.836181E-01  166.386749  1.054091E-05  140.615173  1.000000E+00    0.000000  1.000000E+00    0.000000
  0.008697250  9.840841E-01  165.170731  5.383827E-05  -30.351910  1.000000E+00    0.000000  1.000000E+00    0.000000
  0.009397000  9.852289E-01  163.907867  4.869520E-05    9.018682  1.000000E+00    0.000000  1.000000E+00    0.000000
  0.010096750  9.853086E-01  162.764236  8.609011E-05  -46.321854  1.000000E+00    0.000000  1.000000E+00    0.000000
  0.010796500  9.865537E-01  161.605484  8.546653E-05  -20.939646  1.000000E+00    0.000000  1.000000E+00    0.000000
  0.011496250  9.860309E-01  160.507202  3.716646E-05   53.616238  1.000000E+00    0.000000  1.000000E+00    0.000000
  0.012196000  9.860027E-01  159.279892  7.273850E-05   -7.949539  1.000000E+00    0.000000  1.000000E+00    0.000000
  0.012895750  9.856859E-01  158.104187  8.670464E-05   -1.019785  1.000000E+00    0.000000  1.000000E+00    0.000000
  0.013595500  9.865298E-01  156.982834  4.000256E-05  -70.065811  1.000000E+00    0.000000  1.000000E+00    0.000000
  0.014295250  9.855885E-01  155.796585  4.879176E-05    0.748755  1.000000E+00    0.000000  1.000000E+00    0.000000
  0.014995000  9.864990E-01  154.647263  6.902865E-05  -18.524323  1.000000E+00    0.000000  1.000000E+00    0.000000
  0.015694750  9.868329E-01  153.520081  3.740083E-05    9.025038  1.000000E+00    0.000000  1.000000E+00    0.000000
  0.016394500  9.860485E-01  152.376221  3.235370E-05   -6.253267  1.000000E+00    0.000000  1.000000E+00    0.000000
  0.017094250  9.854658E-01  151.288315  1.230763E-05  -50.765400  1.000000E+00    0.000000  1.000000E+00    0.000000
  0.017794000  9.855412E-01  150.163574  5.058154E-05   -6.888651  1.000000E+00    0.000000  1.000000E+00    0.000000
  0.018493750  9.857416E-01  149.060837  4.969505E-05  -27.396299  1.000000E+00    0.000000  1.000000E+00    0.000000
  0.019193500  9.859050E-01  147.989380  4.216638E-05  -47.842403  1.000000E+00    0.000000  1.000000E+00    0.000000
  0.019893250  9.858847E-01  146.912872  3.077045E-05  -13.109670  1.000000E+00    0.000000  1.000000E+00    0.000000
  0.020593000  9.854841E-01  145.746780  2.118221E-05   60.187546  1.000000E+00    0.000000  1.000000E+00    0.000000
  0.021292750  9.848751E-01  144.614960  4.495054E-05   10.888391  1.000000E+00    0.000000  1.000000E+00    0.000000
  0.021992500  9.856724E-01  143.559311  2.322309E-05   60.632286  1.000000E+00    0.000000  1.000000E+00    0.000000
  0.022692250  9.841831E-01  142.488525  1.931473E-05   -2.128419  1.000000E+00    0.000000  1.000000E+00    0.000000
  0.023392000  9.848166E-01  141.413773  3.625501E-05   -6.934462  1.000000E+00    0.000000  1.000000E+00    0.000000
  0.024091750  9.840624E-01  140.342484  3.486398E-05   10.628947  1.000000E+00    0.000000  1.000000E+00    0.000000
  0.024791500  9.835020E-01  139.251724  3.189787E-05   14.860362  1.000000E+00    0.000000  1.000000E+00    0.000000
  0.025491250  9.888077E-01  138.343521  2.342791E-05   -5.750697  1.000000E+00    0.000000  1.000000E+00    0.000000
  0.026191000  9.887792E-01  137.233032  4.411749E-05   31.891632  1.000000E+00    0.000000  1.000000E+00    0.000000
  0.026890750  9.878604E-01  136.162766  6.724608E-05   22.176249  1.000000E+00    0.000000  1.000000E+00    0.000000
  0.027590500  9.872867E-01  135.077682  2.258411E-05    5.165364  1.000000E+00    0.000000  1.000000E+00    0.000000
  0.028290250  9.865429E-01  134.038727  2.651586E-05   19.857107  1.000000E+00    0.000000  1.000000E+00    0.000000
  0.028990000  9.863521E-01  132.938828  4.199468E-05   31.543440  1.000000E+00    0.000000  1.000000E+00    0.000000
  0.029689750  9.855312E-01  131.902191  2.741763E-05   -3.888924  1.000000E+00    0.000000  1.000000E+00    0.000000
  0.030389500  9.845026E-01  130.860046  4.137865E-05   54.613888  1.000000E+00    0.000000  1.000000E+00    0.000000
  0.031089250  9.837070E-01  129.831833  5.182285E-05   55.734020  1.000000E+00    0.000000  1.000000E+00    0.000000
  0.031789000  9.828228E-01  128.860733  4.751058E-05   47.669533  1.000000E+00    0.000000  1.000000E+00    0.000000
  0.032488750  9.826154E-01  127.808411  3.785116E-05   11.807898  1.000000E+00    0.000000  1.000000E+00    0.000000
  0.033188500  9.820394E-01  126.773567  2.904126E-05   83.823906  1.000000E+00    0.000000  1.000000E+00    0.000000
  0.033888250  9.815586E-01  125.768318  2.852682E-05   63.900143  1.000000E+00    0.000000  1.000000E+00    0.000000
  0.034588000  9.810988E-01  124.813347  1.486293E-05   44.717873  1.000000E+00    0.000000  1.000000E+00    0.000000
  0.035287750  9.805061E-01  123.793724  5.832656E-05   60.415627  1.000000E+00    0.000000  1.000000E+00    0.000000
  0.035987500  9.793906E-01  122.826653  4.043883E-05   83.440353  1.000000E+00    0.000000  1.000000E+00    0.000000
  0.036687250  9.793063E-01  121.871132  4.192721E-05   58.824169  1.000000E+00    0.000000  1.000000E+00    0.000000
  0.037387000  9.788693E-01  120.852821  2.426297E-05   63.774055  1.000000E+00    0.000000  1.000000E+00    0.000000
  0.038086750  9.790093E-01  119.900116  3.853426E-05   62.971603  1.000000E+00    0.000000  1.000000E+00    0.000000
  0.038786500  9.779683E-01  118.950821  2.476618E-05   62.874283  1.000000E+00    0.000000  1.000000E+00    0.000000
  0.039486250  9.778674E-01  117.979362  2.148242E-05   94.537079  1.000000E+00    0.000000  1.000000E+00    0.000000
  0.040186000  9.774209E-01  117.025604  4.901903E-05   55.824986  1.000000E+00    0.000000  1.000000E+00    0.000000
  0.040885750  9.776109E-01  116.089279  5.841103E-05  102.180832  1.000000E+00    0.000000  1.000000E+00    0.000000
  0.041585500  9.775924E-01  115.127495  4.638737E-05   91.042213  1.000000E+00    0.000000  1.000000E+00    0.000000
  0.042285250  9.770555E-01  114.168655  3.491583E-05   53.104244  1.000000E+00    0.000000  1.000000E+00    0.000000
  0.042985000  9.774165E-01  113.248909  7.240374E-05   84.284515  1.000000E+00    0.000000  1.000000E+00    0.000000
  0.043684750  9.775715E-01  112.366119  3.979368E-05   88.678795  1.000000E+00    0.000000  1.000000E+00    0.000000
  0.044384500  9.775857E-01  111.442978  3.906834E-05   83.781982  1.000000E+00    0.000000  1.000000E+00    0.000000
  0.045084250  9.775384E-01  110.519577  5.784456E-05   51.993671  1.000000E+00    0.000000  1.000000E+00    0.000000
  0.045784000  9.773073E-01  109.663971  3.159274E-06   76.551903  1.000000E+00    0.000000  1.000000E+00    0.000000
  0.046483750  9.782338E-01  108.752907  5.089684E-05  120.540123  1.000000E+00    0.000000  1.000000E+00    0.000000
  0.047183500  9.774737E-01  107.934189  5.095705E-05  123.885437  1.000000E+00    0.000000  1.000000E+00    0.000000
  0.047883250  9.787318E-01  107.010376  5.832997E-05  104.786850  1.000000E+00    0.000000  1.000000E+00    0.000000
  0.048583000  9.792091E-01  106.173218  3.386306E-05  163.926727  1.000000E+00    0.000000  1.000000E+00    0.000000
  0.049282750  9.784934E-01  105.293808  5.655567E-06  -45.949799  1.000000E+00    0.000000  1.000000E+00    0.000000
  0.049982500  9.852558E-01  104.594482  4.664115E-05  124.638985  1.000000E+00    0.000000  1.000000E+00    0.000000
  0.050682250  9.845479E-01  103.732796  6.004627E-05   83.651085  1.000000E+00    0.000000  1.000000E+00    0.000000
  0.051382000  9.858559E-01  102.875534  7.039674E-05  161.822601  1.000000E+00    0.000000  1.000000E+00    0.000000
  0.052081750  9.858438E-01  102.046265  7.914542E-05  126.032738  1.000000E+00    0.000000  1.000000E+00    0.000000
  0.052781500  9.859459E-01  101.231903  2.677859E-05 -170.204544  1.000000E+00    0.000000  1.000000E+00    0.000000
  0.053481250  9.856339E-01  100.397240  7.952272E-05  156.046600  1.000000E+00    0.000000  1.000000E+00    0.000000
  0.054181000  9.861076E-01   99.592400  7.273721E-05  169.217957  1.000000E+00    0.000000  1.000000E+00    0.000000
  0.054880750  9.862579E-01   98.845825  8.181087E-05 -168.994614  1.000000E+00    0.000000  1.000000E+00    0.000000
  0.055580500  9.854023E-01   97.988525  1.935815E-05 -169.123444  1.000000E+00    0.000000  1.000000E+00    0.000000
  0.056280250  9.858488E-01   97.228729  6.664104E-05  142.588364  1.000000E+00    0.000000  1.000000E+00    0.000000
  0.056980000  9.857260E-01   96.446693  7.499608E-05  173.863785  1.000000E+00    0.000000  1.000000E+00    0.000000
  0.057679750  9.843249E-01   95.653526  9.427281E-05 -169.682632  1.000000E+00    0.000000  1.000000E+00    0.000000
  0.058379500  9.850989E-01   94.849129  9.426468E-05  155.279602  1.000000E+00    0.000000  1.000000E+00    0.000000
  0.059079250  9.849322E-01   94.066971  4.165952E-05  168.336975  1.000000E+00    0.000000  1.000000E+00    0.000000
  0.059779000  9.844341E-01   93.351906  5.309786E-05  174.687775  1.000000E+00    0.000000  1.000000E+00    0.000000
  0.060478750  9.839866E-01   92.554306  2.897266E-05  133.676193  1.000000E+00    0.000000  1.000000E+00    0.000000
  0.061178500  9.832724E-01   91.853485  1.011841E-04  171.266769  1.000000E+00    0.000000  1.000000E+00    0.000000
  0.061878250  9.831048E-01   91.083649  7.629202E-05  162.443420  1.000000E+00    0.000000  1.000000E+00    0.000000
  0.062578000  9.815690E-01   90.365585  7.744738E-05 -170.026505  1.000000E+00    0.000000  1.000000E+00    0.000000
  0.063277750  9.819751E-01   89.642548  6.979991E-05 -154.321014  1.000000E+00    0.000000  1.000000E+00    0.000000
  0.063977500  9.815825E-01   88.874329  4.470672E-05 -167.094986  1.000000E+00    0.000000  1.000000E+00    0.000000
  0.064677250  9.811664E-01   88.133766  2.468507E-05 -177.807571  1.000000E+00    0.000000  1.000000E+00    0.000000
  0.065377000  9.803296E-01   87.442398  1.070074E-04 -151.692795  1.000000E+00    0.000000  1.000000E+00    0.000000
  0.066076750  9.796083E-01   86.677826  9.987662E-05  173.573410  1.000000E+00    0.000000  1.000000E+00    0.000000
  0.066776500  9.801121E-01   85.966141  8.397872E-05 -154.421265  1.000000E+00    0.000000  1.000000E+00    0.000000
  0.067476250  9.794134E-01   85.265831  1.215303E-04 -152.695984  1.000000E+00    0.000000  1.000000E+00    0.000000
  0.068176000  9.793538E-01   84.594765  8.917061E-05 -156.355865  1.000000E+00    0.000000  1.000000E+00    0.000000
  0.068875750  9.784734E-01   83.809631  4.819972E-05 -130.234909  1.000000E+00    0.000000  1.000000E+00    0.000000
  0.069575500  9.775177E-01   83.216644  9.226213E-05  173.396347  1.000000E+00    0.000000  1.000000E+00    0.000000
  0.070275250  9.776575E-01   82.459915  8.512528E-05 -112.643280  1.000000E+00    0.000000  1.000000E+00    0.000000
  0.070975000  9.775304E-01   81.786743  5.104277E-05 -158.021500  1.000000E+00    0.000000  1.000000E+00    0.000000
  0.071674750  9.767672E-01   81.024940  9.690890E-05 -144.213333  1.000000E+00    0.000000  1.000000E+00    0.000000
  0.072374500  9.768732E-01   80.376785  3.570827E-05 -135.512497  1.000000E+00    0.000000  1.000000E+00    0.000000
  0.073074250  9.758245E-01   79.689774  6.668393E-05 -101.394066  1.000000E+00    0.000000  1.000000E+00    0.000000
  0.073774000  9.760379E-01   78.965179  8.273678E-05 -138.486633  1.000000E+00    0.000000  1.000000E+00    0.000000
  0.074473750  9.764732E-01   78.304092  7.628087E-05 -116.108078  1.000000E+00    0.000000  1.000000E+00    0.000000
  0.075173500  9.761113E-01   77.597031  5.527724E-05 -136.178268  1.000000E+00    0.000000  1.000000E+00    0.000000
  0.075873250  9.759346E-01   76.967552  2.852659E-05 -159.445801  1.000000E+00    0.000000  1.000000E+00    0.000000
  0.076573000  9.762284E-01   76.288887  9.892537E-05 -121.100166  1.000000E+00    0.000000  1.000000E+00    0.000000
  0.077272750  9.760320E-01   75.597839  6.059954E-05 -135.487396  1.000000E+00    0.000000  1.000000E+00    0.000000
  0.077972500  9.764726E-01   74.951981  2.418116E-05 -155.419418  1.000000E+00    0.000000  1.000000E+00    0.000000
  0.078672250  9.773167E-01   74.324562  7.094613E-05 -153.000610  1.000000E+00    0.000000  1.000000E+00    0.000000
  0.079372000  9.774398E-01   73.664558  6.460636E-05 -114.054985  1.000000E+00    0.000000  1.000000E+00    0.000000
  0.080071750  9.776484E-01   72.987610  4.550759E-05  -98.046066  1.000000E+00    0.000000  1.000000E+00    0.000000
  0.080771500  9.782624E-01   72.396011  6.014666E-05 -108.393135  1.000000E+00    0.000000  1.000000E+00    0.000000
  0.081471250  9.786529E-01   71.732285  5.972929E-05  -99.872536  1.000000E+00    0.000000  1.000000E+00    0.000000
  0.082171000  9.783517E-01   71.125809  5.934591E-05 -103.551109  1.000000E+00    0.000000  1.000000E+00    0.000000
  0.082870750  9.786090E-01   70.510460  6.269506E-05  -65.051689  1.000000E+00    0.000000  1.000000E+00    0.000000
  0.083570500  9.787869E-01   69.899475  6.206791E-05  -81.266228  1.000000E+00    0.000000  1.000000E+00    0.000000
  0.084270250  9.793097E-01   69.321281  4.071238E-05  -72.232491  1.000000E+00    0.000000  1.000000E+00    0.000000
  0.084970000  9.795712E-01   68.688416  1.216447E-05 -143.863327  1.000000E+00    0.000000  1.000000E+00    0.000000
  0.085669750  9.793265E-01   68.114494  4.662380E-05 -140.146469  1.000000E+00    0.000000  1.000000E+00    0.000000
  0.086369500  9.800443E-01   67.517128  7.369504E-05  -97.874107  1.000000E+00    0.000000  1.000000E+00    0.000000
  0.087069250  9.797927E-01   66.957840  6.486142E-05  -65.585388  1.000000E+00    0.000000  1.000000E+00    0.000000
  0.087769000  9.809844E-01   66.369606  3.467223E-05 -115.370491  1.000000E+00    0.000000  1.000000E+00    0.000000
  0.088468750  9.809423E-01   65.785583  2.519562E-05 -127.337303  1.000000E+00    0.000000  1.000000E+00    0.000000
  0.089168500  9.805290E-01   65.220467  5.510111E-05  -41.270351  1.000000E+00    0.000000  1.000000E+00    0.000000
  0.089868250  9.805658E-01   64.681351  3.729450E-05  -32.984180  1.000000E+00    0.000000  1.000000E+00    0.000000
  0.090568000  9.809510E-01   64.124748  1.253746E-05 -127.257965  1.000000E+00    0.000000  1.000000E+00    0.000000
  0.091267750  9.819661E-01   63.598740  6.240876E-05  -51.339535  1.000000E+00    0.000000  1.000000E+00    0.000000
  0.091967500  9.815885E-01   63.060902  4.441565E-05  -72.765518  1.000000E+00    0.000000  1.000000E+00    0.000000
  0.092667250  9.822601E-01   62.552677  2.393783E-05  -94.836258  1.000000E+00    0.000000  1.000000E+00    0.000000
  0.093367000  9.816702E-01   62.002193  3.937594E-05  -16.198277  1.000000E+00    0.000000  1.000000E+00    0.000000
  0.094066750  9.813105E-01   61.466305  3.112844E-05  -23.385969  1.000000E+00    0.000000  1.000000E+00    0.000000
  0.094766500  9.825893E-01   60.892654  5.232638E-05  -61.859337  1.000000E+00    0.000000  1.000000E+00    0.000000
  0.095466250  9.824840E-01   60.357536  3.567397E-05  -63.598930  1.000000E+00    0.000000  1.000000E+00    0.000000
  0.096166000  9.825793E-01   59.835079  1.928915E-05  -34.320724  1.000000E+00    0.000000  1.000000E+00    0.000000
  0.096865750  9.821981E-01   59.351768  4.488548E-05  -63.445511  1.000000E+00    0.000000  1.000000E+00    0.000000
  0.097565500  9.822658E-01   58.810246  2.766014E-05  -73.600288  1.000000E+00    0.000000  1.000000E+00    0.000000
  0.098265250  9.825720E-01   58.320744  1.942654E-05  -14.667044  1.000000E+00    0.000000  1.000000E+00    0.000000
  0.098965000  9.821744E-01   57.814095  3.663085E-05  -29.977926  1.000000E+00    0.000000  1.000000E+00    0.000000
  0.099664750  9.817594E-01   57.348194  3.279683E-05  -54.005379  1.000000E+00    0.000000  1.000000E+00    0.000000
  0.100364500  9.848462E-01   56.877525  5.240745E-05   -7.460508  1.000000E+00    0.000000  1.000000E+00    0.000000
  0.101064250  9.850835E-01   56.393707  2.762319E-05   18.660973  1.000000E+00    0.000000  1.000000E+00    0.000000
  0.101764000  9.849625E-01   55.919479  4.163367E-05  -47.733635  1.000000E+00    0.000000  1.000000E+00    0.000000
  0.102463750  9.838439E-01   55.424660  4.939763E-05  -12.212765  1.000000E+00    0.000000  1.000000E+00    0.000000
  0.103163500  9.834200E-01   54.936001  4.738822E-05  -38.562508  1.000000E+00    0.000000  1.000000E+00    0.000000
  0.103863250  9.835128E-01   54.503708  3.502508E-05   23.707945  1.000000E+00    0.000000  1.000000E+00    0.000000
  0.104563000  9.824799E-01   53.977882  5.556094E-05  -32.405689  1.000000E+00    0.000000  1.000000E+00    0.000000
  0.105262750  9.834244E-01   53.640644  4.480971E-05    3.079594  1.000000E+00    0.000000  1.000000E+00    0.000000
  0.105962500  9.827778E-01   53.121040  3.038791E-05    2.225067  1.000000E+00    0.000000  1.000000E+00    0.000000
  0.106662250  9.823865E-01   52.625824  3.721563E-05  -22.859573  1.000000E+00    0.000000  1.000000E+00    0.000000
  0.107362000  9.826892E-01   52.203918  3.375222E-05   -8.368967  1.000000E+00    0.000000  1.000000E+00    0.000000
  0.108061750  9.816669E-01   51.689926  3.688331E-05  -11.470104  1.000000E+00    0.000000  1.000000E+00    0.000000
  0.108761500  9.807112E-01   51.288433  2.942027E-05   -0.880383  1.000000E+00    0.000000  1.000000E+00    0.000000
  0.109461250  9.803383E-01   50.791515  2.717799E-05    7.245059  1.000000E+00    0.000000  1.000000E+00    0.000000
