! Anritsu VNA Master:                           Model: MS2025B
! SN:                                  1642059
! /bd0/PROE/TP1/MSLine3SC_1.s2p
! Existing Calibration Information:
! TYPE:                         Current Settings,       Active Cal Settings
! TIME:             	   04/16/2024 08:54:33 AM,    03/12/2018 11:45:53 AM
! INTERNAL TEMP:    	                   42.5 C,                    40.8 C
! # POINTS:         	                     2857,                      4001
! START FREQ:       	                1.000 MHz,                 1.000 MHz
! STOP FREQ:        	            1.999 486 GHz,                 2.800 GHz
! SOURCE POWER:     	                  Default,                   Default
! IFBW:             	                    1 kHz,                     1 kHz
! AVG FACTOR:       	                       1 ,                        1 
! REF PLANE 1:      	                     0 mm,                      0 mm
! REF PLANE 2:      	                     0 mm,                      0 mm
! CAL TYPE:         	             1P2P S11,S21,              1P2P S11,S21
! CAL METHOD:       	                     SOLT,                      SOLT
! CAL LINE TYPE:    	                     Coax,                      Coax
! DUT PORT 1:       	                         ,                          
! DUT PORT 2:       	                N-Conn(M),                 N-Conn(M)
! CAL STATUS:       	        OK: Accuracy High,                        --
# GHZ S MA R 50.0
! FREQ.GHZ       S11M         S11A         S21M         S21A         S12M         S12A         S22M         S22A
  0.001000000  9.961489E-01  179.563751  6.773801E-05 -111.212769  1.000000E+00    0.000000  1.000000E+00    0.000000
  0.001699750  9.971346E-01  178.946335  3.695612E-05  -83.801971  1.000000E+00    0.000000  1.000000E+00    0.000000
  0.002399500  9.969411E-01  178.149170  5.785068E-05  -43.372086  1.000000E+00    0.000000  1.000000E+00    0.000000
  0.003099250  9.951754E-01  177.532974  5.926529E-05  -65.947678  1.000000E+00    0.000000  1.000000E+00    0.000000
  0.003799000  9.968500E-01  176.849136  5.277086E-05  -37.716595  1.000000E+00    0.000000  1.000000E+00    0.000000
  0.004498750  9.940565E-01  176.236664  4.892309E-05  -56.336597  1.000000E+00    0.000000  1.000000E+00    0.000000
  0.005198500  9.938419E-01  175.639420  4.775875E-05  -74.684761  1.000000E+00    0.000000  1.000000E+00    0.000000
  0.005898250  9.954452E-01  175.024979  4.534020E-05  -23.964979  1.000000E+00    0.000000  1.000000E+00    0.000000
  0.006598000  9.942211E-01  174.435471  6.240833E-05  -50.212635  1.000000E+00    0.000000  1.000000E+00    0.000000
  0.007297750  9.923815E-01  173.811234  6.016218E-05  -56.069542  1.000000E+00    0.000000  1.000000E+00    0.000000
  0.007997500  9.927006E-01  173.208069  5.093595E-05  -32.847221  1.000000E+00    0.000000  1.000000E+00    0.000000
  0.008697250  9.931040E-01  172.632950  4.230029E-05  -50.389309  1.000000E+00    0.000000  1.000000E+00    0.000000
  0.009397000  9.947338E-01  171.996628  4.318012E-05  -57.046318  1.000000E+00    0.000000  1.000000E+00    0.000000
  0.010096750  9.947301E-01  171.402054  3.870923E-05  -72.429977  1.000000E+00    0.000000  1.000000E+00    0.000000
  0.010796500  9.955586E-01  170.801819  5.745506E-05  -13.236352  1.000000E+00    0.000000  1.000000E+00    0.000000
  0.011496250  9.958780E-01  170.233856  5.629194E-05  -21.993704  1.000000E+00    0.000000  1.000000E+00    0.000000
  0.012196000  9.948157E-01  169.562012  6.587934E-05   15.010242  1.000000E+00    0.000000  1.000000E+00    0.000000
  0.012895750  9.948481E-01  169.007568  8.642787E-05  -80.665047  1.000000E+00    0.000000  1.000000E+00    0.000000
  0.013595500  9.959694E-01  168.417465  6.638643E-05  -20.081676  1.000000E+00    0.000000  1.000000E+00    0.000000
  0.014295250  9.954338E-01  167.789978  6.968330E-05  -40.102623  1.000000E+00    0.000000  1.000000E+00    0.000000
  0.014995000  9.968423E-01  167.185440  6.562359E-05  -16.769266  1.000000E+00    0.000000  1.000000E+00    0.000000
  0.015694750  9.960191E-01  166.624268  9.620358E-05    4.280750  1.000000E+00    0.000000  1.000000E+00    0.000000
  0.016394500  9.956223E-01  165.966461  5.263969E-05    5.713312  1.000000E+00    0.000000  1.000000E+00    0.000000
  0.017094250  9.961327E-01  165.408051  4.233367E-05    2.833863  1.000000E+00    0.000000  1.000000E+00    0.000000
  0.017794000  9.960410E-01  164.827011  3.699911E-05  -73.149879  1.000000E+00    0.000000  1.000000E+00    0.000000
  0.018493750  9.959421E-01  164.270859  5.829445E-05   43.757118  1.000000E+00    0.000000  1.000000E+00    0.000000
  0.019193500  9.961118E-01  163.643265  3.435896E-05  -16.144882  1.000000E+00    0.000000  1.000000E+00    0.000000
  0.019893250  9.961789E-01  163.073212  1.492970E-05   44.612209  1.000000E+00    0.000000  1.000000E+00    0.000000
  0.020593000  9.963725E-01  162.474915  6.748940E-05  -10.424661  1.000000E+00    0.000000  1.000000E+00    0.000000
  0.021292750  9.956246E-01  161.859680  2.756065E-05   33.923004  1.000000E+00    0.000000  1.000000E+00    0.000000
  0.021992500  9.968727E-01  161.289764  2.816973E-05   56.296619  1.000000E+00    0.000000  1.000000E+00    0.000000
  0.022692250  9.958609E-01  160.677475  3.844218E-05   19.909304  1.000000E+00    0.000000  1.000000E+00    0.000000
  0.023392000  9.961892E-01  160.119965  4.516841E-05  -14.399309  1.000000E+00    0.000000  1.000000E+00    0.000000
  0.024091750  9.957294E-01  159.542923  6.266387E-06   29.504557  1.000000E+00    0.000000  1.000000E+00    0.000000
  0.024791500  9.955336E-01  158.935593  1.058317E-05  -37.437820  1.000000E+00    0.000000  1.000000E+00    0.000000
  0.025491250  1.001338E+00  158.474152  4.419617E-05   -4.203278  1.000000E+00    0.000000  1.000000E+00    0.000000
  0.026191000  1.001055E+00  157.849655  4.149694E-05   24.166931  1.000000E+00    0.000000  1.000000E+00    0.000000
  0.026890750  1.000483E+00  157.251984  3.898480E-05  -22.794872  1.000000E+00    0.000000  1.000000E+00    0.000000
  0.027590500  9.993249E-01  156.604614  4.658994E-05   27.873672  1.000000E+00    0.000000  1.000000E+00    0.000000
  0.028290250  9.985185E-01  156.004654  3.431662E-05  -22.220526  1.000000E+00    0.000000  1.000000E+00    0.000000
  0.028990000  9.988348E-01  155.391098  5.070621E-05   -1.680722  1.000000E+00    0.000000  1.000000E+00    0.000000
  0.029689750  9.973977E-01  154.745087  4.139005E-05  -41.249344  1.000000E+00    0.000000  1.000000E+00    0.000000
  0.030389500  9.966215E-01  154.151703  2.823389E-05   33.839836  1.000000E+00    0.000000  1.000000E+00    0.000000
  0.031089250  9.960066E-01  153.573135  3.548410E-05   65.730141  1.000000E+00    0.000000  1.000000E+00    0.000000
  0.031789000  9.955227E-01  152.982483  3.677638E-05   49.735710  1.000000E+00    0.000000  1.000000E+00    0.000000
  0.032488750  9.952288E-01  152.368790  5.326219E-05   18.408892  1.000000E+00    0.000000  1.000000E+00    0.000000
  0.033188500  9.947688E-01  151.732651  7.617204E-05   28.822268  1.000000E+00    0.000000  1.000000E+00    0.000000
  0.033888250  9.950331E-01  151.154251  5.196515E-05   38.724121  1.000000E+00    0.000000  1.000000E+00    0.000000
  0.034588000  9.938890E-01  150.593445  3.158416E-05   88.178444  1.000000E+00    0.000000  1.000000E+00    0.000000
  0.035287750  9.933664E-01  149.985764  6.064116E-05   36.546856  1.000000E+00    0.000000  1.000000E+00    0.000000
  0.035987500  9.925710E-01  149.385437  3.977919E-05   38.514854  1.000000E+00    0.000000  1.000000E+00    0.000000
  0.036687250  9.928441E-01  148.822128  3.339016E-05   58.453114  1.000000E+00    0.000000  1.000000E+00    0.000000
  0.037387000  9.923013E-01  148.214935  4.170373E-05   30.237350  1.000000E+00    0.000000  1.000000E+00    0.000000
  0.038086750  9.919941E-01  147.631119  5.163500E-05  113.895889  1.000000E+00    0.000000  1.000000E+00    0.000000
  0.038786500  9.911771E-01  147.053528  4.239594E-05   62.632725  1.000000E+00    0.000000  1.000000E+00    0.000000
  0.039486250  9.912086E-01  146.433258  4.735886E-05  102.572830  1.000000E+00    0.000000  1.000000E+00    0.000000
  0.040186000  9.904246E-01  145.861191  3.997755E-05   78.695084  1.000000E+00    0.000000  1.000000E+00    0.000000
  0.040885750  9.900961E-01  145.248627  3.168692E-05   79.376480  1.000000E+00    0.000000  1.000000E+00    0.000000
  0.041585500  9.898681E-01  144.639191  2.471203E-05   57.952374  1.000000E+00    0.000000  1.000000E+00    0.000000
  0.042285250  9.891028E-01  144.030075  4.876552E-05   71.633415  1.000000E+00    0.000000  1.000000E+00    0.000000
  0.042985000  9.893157E-01  143.420593  4.651785E-05   72.039108  1.000000E+00    0.000000  1.000000E+00    0.000000
  0.043684750  9.892031E-01  142.815735  5.123178E-05  107.837578  1.000000E+00    0.000000  1.000000E+00    0.000000
  0.044384500  9.887809E-01  142.187210  1.181850E-05  105.746025  1.000000E+00    0.000000  1.000000E+00    0.000000
  0.045084250  9.887254E-01  141.580078  2.728581E-05   77.024551  1.000000E+00    0.000000  1.000000E+00    0.000000
  0.045784000  9.884033E-01  141.000397  3.711180E-05  151.804062  1.000000E+00    0.000000  1.000000E+00    0.000000
  0.046483750  9.885758E-01  140.378021  4.005201E-05   74.207542  1.000000E+00    0.000000  1.000000E+00    0.000000
  0.047183500  9.878870E-01  139.795319  5.092285E-05  116.688538  1.000000E+00    0.000000  1.000000E+00    0.000000
  0.047883250  9.879465E-01  139.130676  4.284597E-05   90.685478  1.000000E+00    0.000000  1.000000E+00    0.000000
  0.048583000  9.890565E-01  138.565216  2.487890E-05   63.398075  1.000000E+00    0.000000  1.000000E+00    0.000000
  0.049282750  9.882056E-01  137.925812  2.358173E-05   95.473686  1.000000E+00    0.000000  1.000000E+00    0.000000
  0.049982500  9.945658E-01  137.535919  5.625267E-05  109.784828  1.000000E+00    0.000000  1.000000E+00    0.000000
  0.050682250  9.944276E-01  136.849808  7.019928E-05  109.042862  1.000000E+00    0.000000  1.000000E+00    0.000000
  0.051382000  9.944965E-01  136.258865  2.518839E-05  149.557190  1.000000E+00    0.000000  1.000000E+00    0.000000
  0.052081750  9.952024E-01  135.675262  7.968421E-05  120.472130  1.000000E+00    0.000000  1.000000E+00    0.000000
  0.052781500  9.952879E-01  135.087036  2.544245E-05  123.746033  1.000000E+00    0.000000  1.000000E+00    0.000000
  0.053481250  9.948514E-01  134.427170  7.761947E-05  167.647949  1.000000E+00    0.000000  1.000000E+00    0.000000
  0.054181000  9.952469E-01  133.802048  3.986419E-05  179.220520  1.000000E+00    0.000000  1.000000E+00    0.000000
  0.054880750  9.953098E-01  133.244431  3.750627E-05  157.036774  1.000000E+00    0.000000  1.000000E+00    0.000000
  0.055580500  9.947166E-01  132.629684  4.193789E-05  115.531151  1.000000E+00    0.000000  1.000000E+00    0.000000
  0.056280250  9.955496E-01  132.044418  5.091455E-05  171.168381  1.000000E+00    0.000000  1.000000E+00    0.000000
  0.056980000  9.946048E-01  131.454163  4.276657E-05 -176.107315  1.000000E+00    0.000000  1.000000E+00    0.000000
  0.057679750  9.942318E-01  130.812225  9.301293E-05  178.515198  1.000000E+00    0.000000  1.000000E+00    0.000000
  0.058379500  9.937806E-01  130.223007  6.007517E-05  172.435837  1.000000E+00    0.000000  1.000000E+00    0.000000
  0.059079250  9.942884E-01  129.623535  6.857092E-05  172.074203  1.000000E+00    0.000000  1.000000E+00    0.000000
  0.059779000  9.937439E-01  129.081924  5.622762E-05  119.334930  1.000000E+00    0.000000  1.000000E+00    0.000000
  0.060478750  9.939631E-01  128.398834  3.178602E-05 -161.656662  1.000000E+00    0.000000  1.000000E+00    0.000000
  0.061178500  9.929755E-01  127.867317  7.833637E-05  179.535660  1.000000E+00    0.000000  1.000000E+00    0.000000
  0.061878250  9.929450E-01  127.231613  8.567368E-05 -178.517426  1.000000E+00    0.000000  1.000000E+00    0.000000
  0.062578000  9.915752E-01  126.609879  5.268577E-05  144.688644  1.000000E+00    0.000000  1.000000E+00    0.000000
  0.063277750  9.912772E-01  126.067314  9.529466E-05 -152.510284  1.000000E+00    0.000000  1.000000E+00    0.000000
  0.063977500  9.918553E-01  125.442245  6.386288E-05  137.156433  1.000000E+00    0.000000  1.000000E+00    0.000000
  0.064677250  9.910167E-01  124.829315  4.173549E-05 -170.939117  1.000000E+00    0.000000  1.000000E+00    0.000000
  0.065377000  9.900052E-01  124.248474  7.496289E-05 -166.184219  1.000000E+00    0.000000  1.000000E+00    0.000000
  0.066076750  9.893644E-01  123.602791  7.414935E-05 -136.789108  1.000000E+00    0.000000  1.000000E+00    0.000000
  0.066776500  9.893712E-01  123.034386  6.605616E-05 -170.892548  1.000000E+00    0.000000  1.000000E+00    0.000000
  0.067476250  9.884444E-01  122.415924  2.937013E-05  168.339432  1.000000E+00    0.000000  1.000000E+00    0.000000
  0.068176000  9.883612E-01  121.826492  4.919507E-05 -136.884842  1.000000E+00    0.000000  1.000000E+00    0.000000
  0.068875750  9.871692E-01  121.182884  7.875814E-05 -158.080185  1.000000E+00    0.000000  1.000000E+00    0.000000
  0.069575500  9.869744E-01  120.629898  4.623687E-05 -142.748291  1.000000E+00    0.000000  1.000000E+00    0.000000
  0.070275250  9.873551E-01  120.008080  5.568152E-05 -163.706161  1.000000E+00    0.000000  1.000000E+00    0.000000
  0.070975000  9.864537E-01  119.402023  9.268582E-05 -129.378708  1.000000E+00    0.000000  1.000000E+00    0.000000
  0.071674750  9.859152E-01  118.743629  6.364350E-05 -140.153961  1.000000E+00    0.000000  1.000000E+00    0.000000
  0.072374500  9.858125E-01  118.110443  8.694070E-05 -125.690193  1.000000E+00    0.000000  1.000000E+00    0.000000
  0.073074250  9.844635E-01  117.495567  4.971736E-05 -119.073074  1.000000E+00    0.000000  1.000000E+00    0.000000
  0.073774000  9.848070E-01  116.845741  6.984315E-05 -110.724480  1.000000E+00    0.000000  1.000000E+00    0.000000
  0.074473750  9.845235E-01  116.204742  1.083274E-04 -104.932938  1.000000E+00    0.000000  1.000000E+00    0.000000
  0.075173500  9.840530E-01  115.604309  6.059698E-05 -106.295609  1.000000E+00    0.000000  1.000000E+00    0.000000
  0.075873250  9.841344E-01  114.976799  4.356167E-05  -98.333588  1.000000E+00    0.000000  1.000000E+00    0.000000
  0.076573000  9.834692E-01  114.325912  7.712555E-05 -102.597321  1.000000E+00    0.000000  1.000000E+00    0.000000
  0.077272750  9.830310E-01  113.689812  6.699546E-05 -120.955002  1.000000E+00    0.000000  1.000000E+00    0.000000
  0.077972500  9.829695E-01  113.034470  5.742793E-05 -150.132477  1.000000E+00    0.000000  1.000000E+00    0.000000
  0.078672250  9.830059E-01  112.398964  7.236398E-05 -143.084747  1.000000E+00    0.000000  1.000000E+00    0.000000
  0.079372000  9.831233E-01  111.793884  5.030125E-05 -148.463699  1.000000E+00    0.000000  1.000000E+00    0.000000
  0.080071750  9.826549E-01  111.127899  9.000762E-05  -99.999252  1.000000E+00    0.000000  1.000000E+00    0.000000
  0.080771500  9.829885E-01  110.486687  6.203670E-05 -127.108070  1.000000E+00    0.000000  1.000000E+00    0.000000
  0.081471250  9.817961E-01  109.853691  7.350201E-05 -101.739349  1.000000E+00    0.000000  1.000000E+00    0.000000
  0.082171000  9.815298E-01  109.194595  7.153302E-05  -93.559792  1.000000E+00    0.000000  1.000000E+00    0.000000
  0.082870750  9.819801E-01  108.545357  6.465818E-05  -87.409470  1.000000E+00    0.000000  1.000000E+00    0.000000
  0.083570500  9.817017E-01  107.892548  5.424410E-05 -106.353256  1.000000E+00    0.000000  1.000000E+00    0.000000
  0.084270250  9.821473E-01  107.260475  5.133857E-05  -79.722771  1.000000E+00    0.000000  1.000000E+00    0.000000
  0.084970000  9.818454E-01  106.599709  8.463498E-05  -98.015648  1.000000E+00    0.000000  1.000000E+00    0.000000
  0.085669750  9.823269E-01  105.953224  5.080014E-05 -105.657310  1.000000E+00    0.000000  1.000000E+00    0.000000
  0.086369500  9.825249E-01  105.297714  5.664737E-05  -89.032845  1.000000E+00    0.000000  1.000000E+00    0.000000
  0.087069250  9.824368E-01  104.663521  5.086724E-05 -106.440475  1.000000E+00    0.000000  1.000000E+00    0.000000
  0.087769000  9.832814E-01  104.033859  6.497416E-05  -76.480698  1.000000E+00    0.000000  1.000000E+00    0.000000
  0.088468750  9.832811E-01  103.402557  4.229595E-05  -68.617477  1.000000E+00    0.000000  1.000000E+00    0.000000
  0.089168500  9.829331E-01  102.715950  5.235076E-05 -102.426155  1.000000E+00    0.000000  1.000000E+00    0.000000
  0.089868250  9.829035E-01  102.082603  6.013840E-05  -66.435501  1.000000E+00    0.000000  1.000000E+00    0.000000
  0.090568000  9.832757E-01  101.463753  5.343849E-05  -91.009117  1.000000E+00    0.000000  1.000000E+00    0.000000
  0.091267750  9.841863E-01  100.829987  6.484354E-05  -85.341194  1.000000E+00    0.000000  1.000000E+00    0.000000
  0.091967500  9.839814E-01  100.201057  3.145571E-05    0.211874  1.000000E+00    0.000000  1.000000E+00    0.000000
  0.092667250  9.844099E-01   99.579475  3.317735E-05  -78.991959  1.000000E+00    0.000000  1.000000E+00    0.000000
  0.093367000  9.841199E-01   98.926666  4.441197E-05  -61.960621  1.000000E+00    0.000000  1.000000E+00    0.000000
  0.094066750  9.844467E-01   98.331528  6.181729E-05  -30.512005  1.000000E+00    0.000000  1.000000E+00    0.000000
  0.094766500  9.852119E-01   97.615105  4.115788E-05  -72.174370  1.000000E+00    0.000000  1.000000E+00    0.000000
  0.095466250  9.852124E-01   96.971222  4.684385E-05  -53.568424  1.000000E+00    0.000000  1.000000E+00    0.000000
  0.096166000  9.852069E-01   96.380165  1.614655E-05  -54.738029  1.000000E+00    0.000000  1.000000E+00    0.000000
  0.096865750  9.849283E-01   95.767723  1.553759E-05  -93.352196  1.000000E+00    0.000000  1.000000E+00    0.000000
  0.097565500  9.848251E-01   95.155518  3.259945E-05  -22.197531  1.000000E+00    0.000000  1.000000E+00    0.000000
  0.098265250  9.854905E-01   94.538780  2.515648E-05  -64.332436  1.000000E+00    0.000000  1.000000E+00    0.000000
  0.098965000  9.844258E-01   93.902725  5.830777E-05  -15.756956  1.000000E+00    0.000000  1.000000E+00    0.000000
  0.099664750  9.840477E-01   93.289780  2.867863E-05  -93.299225  1.000000E+00    0.000000  1.000000E+00    0.000000
  0.100364500  9.876465E-01   92.692757  3.485787E-05  -24.923901  1.000000E+00    0.000000  1.000000E+00    0.000000
  0.101064250  9.870531E-01   92.090721  5.237673E-06  -97.892410  1.000000E+00    0.000000  1.000000E+00    0.000000
  0.101764000  9.876235E-01   91.464066  5.406572E-05   -2.074000  1.000000E+00    0.000000  1.000000E+00    0.000000
  0.102463750  9.868526E-01   90.810028  4.187696E-05  -47.235493  1.000000E+00    0.000000  1.000000E+00    0.000000
  0.103163500  9.850804E-01   90.189499  5.836836E-05  -52.111595  1.000000E+00    0.000000  1.000000E+00    0.000000
  0.103863250  9.864991E-01   89.574883  3.530104E-05    5.279124  1.000000E+00    0.000000  1.000000E+00    0.000000
  0.104563000  9.846450E-01   88.913467  2.149347E-05   93.719223  1.000000E+00    0.000000  1.000000E+00    0.000000
  0.105262750  9.863338E-01   88.395279  2.579030E-05    9.838570  1.000000E+00    0.000000  1.000000E+00    0.000000
  0.105962500  9.849200E-01   87.732780  2.374197E-05    0.360586  1.000000E+00    0.000000  1.000000E+00    0.000000
  0.106662250  9.844590E-01   87.067596  1.792201E-05  -16.073362  1.000000E+00    0.000000  1.000000E+00    0.000000
  0.107362000  9.847554E-01   86.502266  1.027256E-05   11.012239  1.000000E+00    0.000000  1.000000E+00    0.000000
  0.108061750  9.837374E-01   85.819435  1.748833E-05  -32.243660  1.000000E+00    0.000000  1.000000E+00    0.000000
  0.108761500  9.831667E-01   85.271881  3.087005E-05    1.125031  1.000000E+00    0.000000  1.000000E+00    0.000000
  0.109461250  9.825027E-01   84.602898  4.742461E-05   37.874229  1.000000E+00    0.000000  1.000000E+00    0.000000
