! Anritsu VNA Master:                           Model: MS2025B
! SN:                                  1642059
! /bd0/PROE/TP1/WireAG.s2p
! Existing Calibration Information:
! TYPE:                         Current Settings,       Active Cal Settings
! TIME:             	   04/16/2024 09:23:42 AM,    03/12/2018 11:45:53 AM
! INTERNAL TEMP:    	                   43.3 C,                    40.8 C
! # POINTS:         	                     2857,                      4001
! START FREQ:       	                1.000 MHz,                 1.000 MHz
! STOP FREQ:        	            1.999 486 GHz,                 2.800 GHz
! SOURCE POWER:     	                  Default,                   Default
! IFBW:             	                    1 kHz,                     1 kHz
! AVG FACTOR:       	                       1 ,                        1 
! REF PLANE 1:      	                     0 mm,                      0 mm
! REF PLANE 2:      	                     0 mm,                      0 mm
! CAL TYPE:         	             1P2P S11,S21,              1P2P S11,S21
! CAL METHOD:       	                     SOLT,                      SOLT
! CAL LINE TYPE:    	                     Coax,                      Coax
! DUT PORT 1:       	                         ,                          
! DUT PORT 2:       	                N-Conn(M),                 N-Conn(M)
! CAL STATUS:       	        OK: Accuracy High,                        --
# GHZ S MA R 50.0
! FREQ.GHZ       S11M         S11A         S21M         S21A         S12M         S12A         S22M         S22A
  0.001000000  9.866943E-01  179.259857  4.293988E-05  -54.153774  1.000000E+00    0.000000  1.000000E+00    0.000000
  0.001699750  9.854830E-01  178.415207  9.650551E-05  -76.985023  1.000000E+00    0.000000  1.000000E+00    0.000000
  0.002399500  9.865119E-01  177.370163  7.452450E-05 -126.674301  1.000000E+00    0.000000  1.000000E+00    0.000000
  0.003099250  9.841326E-01  176.418900  3.878803E-05   98.972420  1.000000E+00    0.000000  1.000000E+00    0.000000
  0.003799000  9.866648E-01  175.549698  3.075708E-05  -51.776619  1.000000E+00    0.000000  1.000000E+00    0.000000
  0.004498750  9.827076E-01  174.688583  5.178652E-05  -66.722557  1.000000E+00    0.000000  1.000000E+00    0.000000
  0.005198500  9.828116E-01  173.875992  4.305058E-05  -40.974400  1.000000E+00    0.000000  1.000000E+00    0.000000
  0.005898250  9.842752E-01  172.999756  7.727753E-05  -38.194458  1.000000E+00    0.000000  1.000000E+00    0.000000
  0.006598000  9.826773E-01  172.207565  4.931268E-05   -7.957883  1.000000E+00    0.000000  1.000000E+00    0.000000
  0.007297750  9.821793E-01  171.316483  6.776379E-05  -25.219887  1.000000E+00    0.000000  1.000000E+00    0.000000
  0.007997500  9.810323E-01  170.520187  7.921486E-05  -25.029657  1.000000E+00    0.000000  1.000000E+00    0.000000
  0.008697250  9.820390E-01  169.673111  5.709399E-05  -56.410160  1.000000E+00    0.000000  1.000000E+00    0.000000
  0.009397000  9.835143E-01  168.796875  5.408481E-05   43.737312  1.000000E+00    0.000000  1.000000E+00    0.000000
  0.010096750  9.836776E-01  167.943008  1.776586E-05  -64.829315  1.000000E+00    0.000000  1.000000E+00    0.000000
  0.010796500  9.841094E-01  167.136414  6.706063E-05  -18.032188  1.000000E+00    0.000000  1.000000E+00    0.000000
  0.011496250  9.843627E-01  166.358688  7.993275E-05   -0.060560  1.000000E+00    0.000000  1.000000E+00    0.000000
  0.012196000  9.841593E-01  165.453690  5.900477E-05  -39.934963  1.000000E+00    0.000000  1.000000E+00    0.000000
  0.012895750  9.839668E-01  164.672791  7.791587E-05  -14.208619  1.000000E+00    0.000000  1.000000E+00    0.000000
  0.013595500  9.854222E-01  163.888443  6.613299E-05   24.293941  1.000000E+00    0.000000  1.000000E+00    0.000000
  0.014295250  9.839579E-01  162.977982  1.615012E-05   62.908260  1.000000E+00    0.000000  1.000000E+00    0.000000
  0.014995000  9.852335E-01  162.227081  6.430347E-05    7.505799  1.000000E+00    0.000000  1.000000E+00    0.000000
  0.015694750  9.850104E-01  161.416840  4.472055E-05    5.559359  1.000000E+00    0.000000  1.000000E+00    0.000000
  0.016394500  9.849194E-01  160.613449  2.115015E-05  -21.941883  1.000000E+00    0.000000  1.000000E+00    0.000000
  0.017094250  9.847701E-01  159.798843  5.008810E-05  -28.568913  1.000000E+00    0.000000  1.000000E+00    0.000000
  0.017794000  9.844210E-01  159.015884  2.680687E-05   16.406082  1.000000E+00    0.000000  1.000000E+00    0.000000
  0.018493750  9.849645E-01  158.199448  2.605853E-05  -67.405167  1.000000E+00    0.000000  1.000000E+00    0.000000
  0.019193500  9.847086E-01  157.395447  4.043568E-05   35.697933  1.000000E+00    0.000000  1.000000E+00    0.000000
  0.019893250  9.851498E-01  156.613510  1.725642E-05  106.526810  1.000000E+00    0.000000  1.000000E+00    0.000000
  0.020593000  9.855973E-01  155.773483  2.513710E-05   84.338844  1.000000E+00    0.000000  1.000000E+00    0.000000
  0.021292750  9.848675E-01  155.005905  4.734585E-05  -11.090163  1.000000E+00    0.000000  1.000000E+00    0.000000
  0.021992500  9.850727E-01  154.236313  2.680867E-05  -45.390358  1.000000E+00    0.000000  1.000000E+00    0.000000
  0.022692250  9.839379E-01  153.447739  4.843332E-05  -44.249973  1.000000E+00    0.000000  1.000000E+00    0.000000
  0.023392000  9.843726E-01  152.660629  3.738916E-05    9.828551  1.000000E+00    0.000000  1.000000E+00    0.000000
  0.024091750  9.848381E-01  151.882828  2.797800E-05   -9.303130  1.000000E+00    0.000000  1.000000E+00    0.000000
  0.024791500  9.840581E-01  151.061356  5.662933E-05  -13.576328  1.000000E+00    0.000000  1.000000E+00    0.000000
  0.025491250  9.900941E-01  150.434143  2.307624E-05   29.459826  1.000000E+00    0.000000  1.000000E+00    0.000000
  0.026191000  9.902531E-01  149.643494  2.932307E-05   16.072470  1.000000E+00    0.000000  1.000000E+00    0.000000
  0.026890750  9.892372E-01  148.790680  2.862026E-05   21.639362  1.000000E+00    0.000000  1.000000E+00    0.000000
  0.027590500  9.889565E-01  148.016327  5.699439E-05  -13.445754  1.000000E+00    0.000000  1.000000E+00    0.000000
  0.028290250  9.877934E-01  147.227509  5.490151E-05   25.058876  1.000000E+00    0.000000  1.000000E+00    0.000000
  0.028990000  9.876595E-01  146.415146  3.998422E-05   52.816051  1.000000E+00    0.000000  1.000000E+00    0.000000
  0.029689750  9.864536E-01  145.595062  3.101551E-05   41.422844  1.000000E+00    0.000000  1.000000E+00    0.000000
  0.030389500  9.854243E-01  144.826996  4.375888E-05   31.697613  1.000000E+00    0.000000  1.000000E+00    0.000000
  0.031089250  9.855211E-01  144.071732  4.331286E-05   39.834820  1.000000E+00    0.000000  1.000000E+00    0.000000
  0.031789000  9.846705E-01  143.327484  4.031356E-05   27.860903  1.000000E+00    0.000000  1.000000E+00    0.000000
  0.032488750  9.838945E-01  142.542786  5.098246E-05   46.366009  1.000000E+00    0.000000  1.000000E+00    0.000000
  0.033188500  9.834967E-01  141.745621  3.525649E-05  106.363937  1.000000E+00    0.000000  1.000000E+00    0.000000
  0.033888250  9.832741E-01  140.992081  2.794157E-05   38.439674  1.000000E+00    0.000000  1.000000E+00    0.000000
  0.034588000  9.828089E-01  140.263901  4.131717E-05   70.332138  1.000000E+00    0.000000  1.000000E+00    0.000000
  0.035287750  9.823133E-01  139.517532  2.835761E-05   59.368305  1.000000E+00    0.000000  1.000000E+00    0.000000
  0.035987500  9.813573E-01  138.743851  4.008536E-05   80.468773  1.000000E+00    0.000000  1.000000E+00    0.000000
  0.036687250  9.817041E-01  138.039581  3.981432E-05   50.439396  1.000000E+00    0.000000  1.000000E+00    0.000000
  0.037387000  9.809113E-01  137.246368  3.899664E-05   60.524921  1.000000E+00    0.000000  1.000000E+00    0.000000
  0.038086750  9.808023E-01  136.539825  1.476553E-05  105.674934  1.000000E+00    0.000000  1.000000E+00    0.000000
  0.038786500  9.801142E-01  135.819519  3.505480E-05   93.402794  1.000000E+00    0.000000  1.000000E+00    0.000000
  0.039486250  9.795778E-01  135.075058  1.790548E-05   74.317116  1.000000E+00    0.000000  1.000000E+00    0.000000
  0.040186000  9.787827E-01  134.366150  3.176310E-05  101.309792  1.000000E+00    0.000000  1.000000E+00    0.000000
  0.040885750  9.787080E-01  133.608551  4.807831E-05   93.419708  1.000000E+00    0.000000  1.000000E+00    0.000000
  0.041585500  9.787971E-01  132.843643  6.338528E-05   98.641624  1.000000E+00    0.000000  1.000000E+00    0.000000
  0.042285250  9.785058E-01  132.119705  5.739764E-05  110.546608  1.000000E+00    0.000000  1.000000E+00    0.000000
  0.042985000  9.786173E-01  131.394196  7.066556E-05   88.611252  1.000000E+00    0.000000  1.000000E+00    0.000000
  0.043684750  9.781712E-01  130.687256  6.303118E-05   72.546921  1.000000E+00    0.000000  1.000000E+00    0.000000
  0.044384500  9.785334E-01  129.933365  3.214519E-05  139.172043  1.000000E+00    0.000000  1.000000E+00    0.000000
  0.045084250  9.785417E-01  129.212082  4.898795E-05   79.176682  1.000000E+00    0.000000  1.000000E+00    0.000000
  0.045784000  9.786811E-01  128.494812  3.760083E-05   92.383392  1.000000E+00    0.000000  1.000000E+00    0.000000
  0.046483750  9.789892E-01  127.772415  4.628692E-05   80.199318  1.000000E+00    0.000000  1.000000E+00    0.000000
  0.047183500  9.784198E-01  127.079987  6.587226E-05   81.200981  1.000000E+00    0.000000  1.000000E+00    0.000000
  0.047883250  9.786652E-01  126.357216  3.984753E-05   37.481983  1.000000E+00    0.000000  1.000000E+00    0.000000
  0.048583000  9.795590E-01  125.669891  6.278388E-05  126.266853  1.000000E+00    0.000000  1.000000E+00    0.000000
  0.049282750  9.798057E-01  124.952652  3.232074E-05  116.747398  1.000000E+00    0.000000  1.000000E+00    0.000000
  0.049982500  9.863527E-01  124.414383  2.624538E-05  133.272522  1.000000E+00    0.000000  1.000000E+00    0.000000
  0.050682250  9.866194E-01  123.695518  3.517705E-05   99.148270  1.000000E+00    0.000000  1.000000E+00    0.000000
  0.051382000  9.874066E-01  123.041718  3.231497E-05  129.708374  1.000000E+00    0.000000  1.000000E+00    0.000000
  0.052081750  9.878888E-01  122.396004  6.563219E-05  113.011063  1.000000E+00    0.000000  1.000000E+00    0.000000
  0.052781500  9.878587E-01  121.666008  7.482069E-05  148.095871  1.000000E+00    0.000000  1.000000E+00    0.000000
  0.053481250  9.878182E-01  120.983154  4.563064E-05  160.238617  1.000000E+00    0.000000  1.000000E+00    0.000000
  0.054181000  9.877494E-01  120.260246  5.666656E-05  170.543533  1.000000E+00    0.000000  1.000000E+00    0.000000
  0.054880750  9.877279E-01  119.634079  7.580755E-05  167.802109  1.000000E+00    0.000000  1.000000E+00    0.000000
  0.055580500  9.874175E-01  118.937553  8.184071E-05  168.152863  1.000000E+00    0.000000  1.000000E+00    0.000000
  0.056280250  9.888443E-01  118.307343  4.394965E-05  149.324234  1.000000E+00    0.000000  1.000000E+00    0.000000
  0.056980000  9.874668E-01  117.643120  1.039722E-05 -114.476578  1.000000E+00    0.000000  1.000000E+00    0.000000
  0.057679750  9.865662E-01  116.984505  6.096880E-05  166.668381  1.000000E+00    0.000000  1.000000E+00    0.000000
  0.058379500  9.873465E-01  116.328888  1.988886E-05  137.597290  1.000000E+00    0.000000  1.000000E+00    0.000000
  0.059079250  9.873003E-01  115.735123  1.995321E-05 -177.345428  1.000000E+00    0.000000  1.000000E+00    0.000000
  0.059779000  9.864966E-01  115.061569  5.083172E-05 -106.713974  1.000000E+00    0.000000  1.000000E+00    0.000000
  0.060478750  9.866670E-01  114.403023  3.304858E-05  172.857178  1.000000E+00    0.000000  1.000000E+00    0.000000
  0.061178500  9.858530E-01  113.795341  1.287087E-04  170.203812  1.000000E+00    0.000000  1.000000E+00    0.000000
  0.061878250  9.857996E-01  113.131042  4.402978E-05  168.714966  1.000000E+00    0.000000  1.000000E+00    0.000000
  0.062578000  9.844062E-01  112.526405  1.148093E-04  166.971817  1.000000E+00    0.000000  1.000000E+00    0.000000
  0.063277750  9.850359E-01  111.899231  6.777314E-05  137.734024  1.000000E+00    0.000000  1.000000E+00    0.000000
  0.063977500  9.847769E-01  111.253334  5.632385E-05 -134.734497  1.000000E+00    0.000000  1.000000E+00    0.000000
  0.064677250  9.845435E-01  110.599724  3.938777E-05 -155.101227  1.000000E+00    0.000000  1.000000E+00    0.000000
  0.065377000  9.835138E-01  110.006912  4.550358E-05 -169.798401  1.000000E+00    0.000000  1.000000E+00    0.000000
  0.066076750  9.834443E-01  109.400681  1.106463E-05  143.642838  1.000000E+00    0.000000  1.000000E+00    0.000000
  0.066776500  9.827810E-01  108.792015  5.406093E-05 -158.496704  1.000000E+00    0.000000  1.000000E+00    0.000000
  0.067476250  9.826854E-01  108.167046  6.024355E-05 -173.042221  1.000000E+00    0.000000  1.000000E+00    0.000000
  0.068176000  9.818912E-01  107.624405  4.325202E-05 -108.437759  1.000000E+00    0.000000  1.000000E+00    0.000000
  0.068875750  9.809371E-01  106.882080  9.763268E-05 -177.149765  1.000000E+00    0.000000  1.000000E+00    0.000000
  0.069575500  9.808094E-01  106.375389  3.970298E-05 -138.697754  1.000000E+00    0.000000  1.000000E+00    0.000000
  0.070275250  9.810268E-01  105.736748  9.795341E-05 -133.136703  1.000000E+00    0.000000  1.000000E+00    0.000000
  0.070975000  9.807732E-01  105.167732  1.239375E-04 -175.802048  1.000000E+00    0.000000  1.000000E+00    0.000000
  0.071674750  9.799916E-01  104.505959  1.037452E-04 -174.513733  1.000000E+00    0.000000  1.000000E+00    0.000000
  0.072374500  9.803661E-01  103.901604  9.607618E-05 -160.501434  1.000000E+00    0.000000  1.000000E+00    0.000000
  0.073074250  9.791210E-01  103.276039  1.011247E-04 -151.563828  1.000000E+00    0.000000  1.000000E+00    0.000000
  0.073774000  9.796004E-01  102.668854  5.530445E-05 -164.961655  1.000000E+00    0.000000  1.000000E+00    0.000000
  0.074473750  9.792410E-01  102.075523  7.950977E-05 -112.924133  1.000000E+00    0.000000  1.000000E+00    0.000000
  0.075173500  9.791296E-01  101.463036  8.544497E-05 -144.769745  1.000000E+00    0.000000  1.000000E+00    0.000000
  0.075873250  9.792148E-01  100.875381  3.739319E-05 -156.398361  1.000000E+00    0.000000  1.000000E+00    0.000000
  0.076573000  9.792359E-01  100.298241  4.692564E-05 -135.877304  1.000000E+00    0.000000  1.000000E+00    0.000000
  0.077272750  9.789883E-01   99.665970  5.606321E-05 -127.893654  1.000000E+00    0.000000  1.000000E+00    0.000000
  0.077972500  9.790529E-01   99.118248  4.441139E-05 -179.335434  1.000000E+00    0.000000  1.000000E+00    0.000000
  0.078672250  9.790406E-01   98.499084  3.021393E-05  158.954910  1.000000E+00    0.000000  1.000000E+00    0.000000
  0.079372000  9.797668E-01   97.906929  6.355054E-05 -110.793602  1.000000E+00    0.000000  1.000000E+00    0.000000
  0.080071750  9.798687E-01   97.295067  4.181725E-05 -123.264725  1.000000E+00    0.000000  1.000000E+00    0.000000
  0.080771500  9.804557E-01   96.722916  6.830835E-05 -115.587944  1.000000E+00    0.000000  1.000000E+00    0.000000
  0.081471250  9.801932E-01   96.114441  4.839040E-05 -112.327980  1.000000E+00    0.000000  1.000000E+00    0.000000
  0.082171000  9.797766E-01   95.498718  7.063573E-05 -101.054512  1.000000E+00    0.000000  1.000000E+00    0.000000
  0.082870750  9.802203E-01   94.959068  8.471470E-06 -148.608704  1.000000E+00    0.000000  1.000000E+00    0.000000
  0.083570500  9.804676E-01   94.397644  6.811303E-05 -121.533493  1.000000E+00    0.000000  1.000000E+00    0.000000
  0.084270250  9.808248E-01   93.860672  8.907178E-05 -118.958504  1.000000E+00    0.000000  1.000000E+00    0.000000
  0.084970000  9.816211E-01   93.268921  6.540985E-05 -137.065369  1.000000E+00    0.000000  1.000000E+00    0.000000
  0.085669750  9.818667E-01   92.722961  9.146845E-05  -93.336601  1.000000E+00    0.000000  1.000000E+00    0.000000
  0.086369500  9.822629E-01   92.130394  7.309536E-05  -46.019073  1.000000E+00    0.000000  1.000000E+00    0.000000
  0.087069250  9.823136E-01   91.576004  3.781784E-05 -109.263817  1.000000E+00    0.000000  1.000000E+00    0.000000
  0.087769000  9.828212E-01   91.040955  3.354285E-05  -60.874340  1.000000E+00    0.000000  1.000000E+00    0.000000
  0.088468750  9.836684E-01   90.479462  5.508304E-05 -113.680794  1.000000E+00    0.000000  1.000000E+00    0.000000
  0.089168500  9.831122E-01   89.958565  4.201963E-05 -121.696281  1.000000E+00    0.000000  1.000000E+00    0.000000
  0.089868250  9.833167E-01   89.390526  4.652720E-05  -50.654686  1.000000E+00    0.000000  1.000000E+00    0.000000
  0.090568000  9.837070E-01   88.882874  3.719153E-05 -114.746437  1.000000E+00    0.000000  1.000000E+00    0.000000
  0.091267750  9.847350E-01   88.408203  3.155313E-05  -94.517471  1.000000E+00    0.000000  1.000000E+00    0.000000
  0.091967500  9.849176E-01   87.887100  4.114243E-05  -64.634735  1.000000E+00    0.000000  1.000000E+00    0.000000
  0.092667250  9.858274E-01   87.378891  3.375946E-05  -21.151855  1.000000E+00    0.000000  1.000000E+00    0.000000
  0.093367000  9.853686E-01   86.881027  4.304898E-05  -42.630531  1.000000E+00    0.000000  1.000000E+00    0.000000
  0.094066750  9.856248E-01   86.340393  3.432918E-05  -75.453331  1.000000E+00    0.000000  1.000000E+00    0.000000
  0.094766500  9.870923E-01   85.786232  2.680988E-05  -46.076920  1.000000E+00    0.000000  1.000000E+00    0.000000
  0.095466250  9.868745E-01   85.275215  4.199294E-05 -135.593933  1.000000E+00    0.000000  1.000000E+00    0.000000
  0.096166000  9.868873E-01   84.836212  4.353968E-05  -95.748840  1.000000E+00    0.000000  1.000000E+00    0.000000
  0.096865750  9.866412E-01   84.311783  2.058855E-05  -15.718787  1.000000E+00    0.000000  1.000000E+00    0.000000
  0.097565500  9.866093E-01   83.827698  1.330777E-05 -106.558250  1.000000E+00    0.000000  1.000000E+00    0.000000
  0.098265250  9.875413E-01   83.371971  3.832157E-05  -18.694328  1.000000E+00    0.000000  1.000000E+00    0.000000
  0.098965000  9.870803E-01   82.848381  5.252083E-05  -60.777870  1.000000E+00    0.000000  1.000000E+00    0.000000
  0.099664750  9.866840E-01   82.390587  1.770681E-05  -81.707909  1.000000E+00    0.000000  1.000000E+00    0.000000
  0.100364500  9.902758E-01   81.947983  2.102113E-05   -9.801367  1.000000E+00    0.000000  1.000000E+00    0.000000
  0.101064250  9.903846E-01   81.490944  2.727302E-05   49.891468  1.000000E+00    0.000000  1.000000E+00    0.000000
  0.101764000  9.907528E-01   80.992615  2.354695E-05   55.468819  1.000000E+00    0.000000  1.000000E+00    0.000000
  0.102463750  9.892792E-01   80.523972  1.634152E-05   75.450958  1.000000E+00    0.000000  1.000000E+00    0.000000
  0.103163500  9.882674E-01   80.052086  4.290812E-05   39.306591  1.000000E+00    0.000000  1.000000E+00    0.000000
  0.103863250  9.902597E-01   79.630760  2.177163E-05   38.903450  1.000000E+00    0.000000  1.000000E+00    0.000000
  0.104563000  9.882306E-01   79.139725  1.390710E-05    8.151281  1.000000E+00    0.000000  1.000000E+00    0.000000
  0.105262750  9.899185E-01   78.778061  3.430169E-05   17.870070  1.000000E+00    0.000000  1.000000E+00    0.000000
  0.105962500  9.892379E-01   78.253738  1.195784E-05   49.821960  1.000000E+00    0.000000  1.000000E+00    0.000000
  0.106662250  9.887680E-01   77.770538  4.140716E-05   24.172319  1.000000E+00    0.000000  1.000000E+00    0.000000
  0.107362000  9.891195E-01   77.402824  8.102053E-06  -31.358355  1.000000E+00    0.000000  1.000000E+00    0.000000
  0.108061750  9.880732E-01   76.889648  3.361442E-05   31.451057  1.000000E+00    0.000000  1.000000E+00    0.000000
  0.108761500  9.877565E-01   76.508781  2.628323E-05  -19.608557  1.000000E+00    0.000000  1.000000E+00    0.000000
  0.109461250  9.879633E-01   76.020737  3.676685E-05   41.126438  1.000000E+00    0.000000  1.000000E+00    0.000000
