! Anritsu VNA Master:                           Model: MS2025B
! SN:                                  1642059
! /bd0/PROE/TP1/P2/Cmeas.s2p
! Existing Calibration Information:
! TYPE:                         Current Settings,       Active Cal Settings
! TIME:             	   04/23/2024 08:27:33 AM,    03/12/2018 11:45:53 AM
! INTERNAL TEMP:    	                   41.8 C,                    40.8 C
! # POINTS:         	                     1715,                      4001
! START FREQ:       	                1.000 MHz,                 1.000 MHz
! STOP FREQ:        	        1.200 371 500 GHz,                 2.800 GHz
! SOURCE POWER:     	                  Default,                   Default
! IFBW:             	                    1 kHz,                     1 kHz
! AVG FACTOR:       	                       1 ,                        1 
! REF PLANE 1:      	                     0 mm,                      0 mm
! REF PLANE 2:      	                     0 mm,                      0 mm
! CAL TYPE:         	             1P2P S11,S21,              1P2P S11,S21
! CAL METHOD:       	                     SOLT,                      SOLT
! CAL LINE TYPE:    	                     Coax,                      Coax
! DUT PORT 1:       	                         ,                          
! DUT PORT 2:       	                N-Conn(M),                 N-Conn(M)
! CAL STATUS:       	        OK: Accuracy High,                        --
# GHZ S MA R 50.0
! FREQ.GHZ       S11M         S11A         S21M         S21A         S12M         S12A         S22M         S22A
  0.001000000  9.945198E-01   -9.570447  4.175147E-05  -83.123192  1.000000E+00    0.000000  1.000000E+00    0.000000
  0.001699750  9.924059E-01  -16.490517  8.666842E-06  -55.827560  1.000000E+00    0.000000  1.000000E+00    0.000000
  0.002399500  9.898418E-01  -23.314280  9.257629E-05  -70.821526  1.000000E+00    0.000000  1.000000E+00    0.000000
  0.003099250  9.887309E-01  -29.972876  7.312219E-05  -36.367897  1.000000E+00    0.000000  1.000000E+00    0.000000
  0.003799000  9.909272E-01  -36.434494  4.347728E-05  -59.422714  1.000000E+00    0.000000  1.000000E+00    0.000000
  0.004498750  9.901435E-01  -42.672260  2.937803E-05  -83.858162  1.000000E+00    0.000000  1.000000E+00    0.000000
  0.005198500  9.907333E-01  -48.553238  3.339344E-05  -28.992428  1.000000E+00    0.000000  1.000000E+00    0.000000
  0.005898250  9.926181E-01  -54.275585  3.669715E-05  -72.085251  1.000000E+00    0.000000  1.000000E+00    0.000000
  0.006598000  9.927167E-01  -59.678135  1.854816E-05    3.410942  1.000000E+00    0.000000  1.000000E+00    0.000000
  0.007297750  9.927155E-01  -64.724495  5.798997E-05  -49.606426  1.000000E+00    0.000000  1.000000E+00    0.000000
  0.007997500  9.927696E-01  -69.623016  5.545113E-05  -37.503117  1.000000E+00    0.000000  1.000000E+00    0.000000
  0.008697250  9.928902E-01  -74.312981  1.277654E-05   44.745247  1.000000E+00    0.000000  1.000000E+00    0.000000
  0.009397000  9.959295E-01  -78.576744  4.123647E-05  -77.788277  1.000000E+00    0.000000  1.000000E+00    0.000000
  0.010096750  9.965922E-01  -82.693077  5.192600E-05  -12.914054  1.000000E+00    0.000000  1.000000E+00    0.000000
  0.010796500  9.978637E-01  -86.479828  3.634767E-05 -175.211426  1.000000E+00    0.000000  1.000000E+00    0.000000
  0.011496250  9.981840E-01  -90.198662  4.735104E-05  -76.573135  1.000000E+00    0.000000  1.000000E+00    0.000000
  0.012196000  9.976141E-01  -93.609703  4.545499E-05  -21.601633  1.000000E+00    0.000000  1.000000E+00    0.000000
  0.012895750  9.974664E-01  -96.838585  5.910960E-05   43.368301  1.000000E+00    0.000000  1.000000E+00    0.000000
  0.013595500  9.977372E-01  -99.869972  5.267927E-05   28.099306  1.000000E+00    0.000000  1.000000E+00    0.000000
  0.014295250  9.967147E-01 -102.729416  2.629075E-05  -14.361183  1.000000E+00    0.000000  1.000000E+00    0.000000
  0.014995000  9.979076E-01 -105.468414  4.289481E-05    6.411790  1.000000E+00    0.000000  1.000000E+00    0.000000
  0.015694750  9.976970E-01 -107.997261  3.285512E-05   27.130795  1.000000E+00    0.000000  1.000000E+00    0.000000
  0.016394500  9.971670E-01 -110.416092  8.172765E-05  -12.389007  1.000000E+00    0.000000  1.000000E+00    0.000000
  0.017094250  9.968437E-01 -112.760887  4.157396E-05   -8.787077  1.000000E+00    0.000000  1.000000E+00    0.000000
  0.017794000  9.963687E-01 -114.882828  6.901521E-05  -18.998373  1.000000E+00    0.000000  1.000000E+00    0.000000
  0.018493750  9.963841E-01 -116.984131  2.426621E-05  -18.651390  1.000000E+00    0.000000  1.000000E+00    0.000000
  0.019193500  9.957961E-01 -118.895615  6.505023E-05    6.370965  1.000000E+00    0.000000  1.000000E+00    0.000000
  0.019893250  9.953448E-01 -120.763466  4.211674E-05   17.833736  1.000000E+00    0.000000  1.000000E+00    0.000000
  0.020593000  9.968247E-01 -122.561935  2.294974E-05  -43.382549  1.000000E+00    0.000000  1.000000E+00    0.000000
  0.021292750  9.955320E-01 -124.211693  7.322535E-05   19.052855  1.000000E+00    0.000000  1.000000E+00    0.000000
  0.021992500  9.959717E-01 -125.834953  4.059688E-05   10.455644  1.000000E+00    0.000000  1.000000E+00    0.000000
  0.022692250  9.948986E-01 -127.363655  2.292818E-05  -17.992725  1.000000E+00    0.000000  1.000000E+00    0.000000
  0.023392000  9.951493E-01 -128.818512  4.933042E-05    4.097882  1.000000E+00    0.000000  1.000000E+00    0.000000
  0.024091750  9.949125E-01 -130.246399  6.780333E-05  -23.093880  1.000000E+00    0.000000  1.000000E+00    0.000000
  0.024791500  9.956265E-01 -131.570496  3.352001E-05  -15.929192  1.000000E+00    0.000000  1.000000E+00    0.000000
  0.025491250  9.987482E-01 -132.706741  7.227071E-05   18.862679  1.000000E+00    0.000000  1.000000E+00    0.000000
  0.026191000  9.986645E-01 -133.928848  7.219089E-05   26.284151  1.000000E+00    0.000000  1.000000E+00    0.000000
  0.026890750  9.989589E-01 -135.170700  2.068775E-05   20.375824  1.000000E+00    0.000000  1.000000E+00    0.000000
  0.027590500  9.993898E-01 -136.280090  4.890344E-05   18.788368  1.000000E+00    0.000000  1.000000E+00    0.000000
  0.028290250  9.986547E-01 -137.410873  7.009299E-05   12.544129  1.000000E+00    0.000000  1.000000E+00    0.000000
  0.028990000  9.988815E-01 -138.438232  5.457938E-05   -1.490915  1.000000E+00    0.000000  1.000000E+00    0.000000
  0.029689750  9.987296E-01 -139.455856  2.659024E-05   35.268654  1.000000E+00    0.000000  1.000000E+00    0.000000
  0.030389500  9.990666E-01 -140.495285  2.865217E-05   51.237598  1.000000E+00    0.000000  1.000000E+00    0.000000
  0.031089250  9.980288E-01 -141.364120  4.972538E-05   33.135597  1.000000E+00    0.000000  1.000000E+00    0.000000
  0.031789000  9.978548E-01 -142.226227  3.798557E-05    0.785138  1.000000E+00    0.000000  1.000000E+00    0.000000
  0.032488750  9.983108E-01 -143.095047  2.836291E-05   -4.434434  1.000000E+00    0.000000  1.000000E+00    0.000000
  0.033188500  9.982458E-01 -143.921585  3.810448E-05   28.265532  1.000000E+00    0.000000  1.000000E+00    0.000000
  0.033888250  9.978853E-01 -144.668243  6.521894E-05   55.666252  1.000000E+00    0.000000  1.000000E+00    0.000000
  0.034588000  9.974605E-01 -145.426010  6.616204E-05   67.256943  1.000000E+00    0.000000  1.000000E+00    0.000000
  0.035287750  9.977306E-01 -146.145889  3.038498E-05   53.546383  1.000000E+00    0.000000  1.000000E+00    0.000000
  0.035987500  9.977128E-01 -146.842453  4.919766E-05   93.198959  1.000000E+00    0.000000  1.000000E+00    0.000000
  0.036687250  9.976472E-01 -147.525009  4.774807E-05   62.918858  1.000000E+00    0.000000  1.000000E+00    0.000000
  0.037387000  9.973730E-01 -148.184082  5.404417E-05   58.883301  1.000000E+00    0.000000  1.000000E+00    0.000000
  0.038086750  9.975611E-01 -148.787354  6.191231E-05   40.807243  1.000000E+00    0.000000  1.000000E+00    0.000000
  0.038786500  9.970280E-01 -149.407913  5.767884E-05   72.581810  1.000000E+00    0.000000  1.000000E+00    0.000000
  0.039486250  9.975192E-01 -149.987381  1.922836E-05   61.008595  1.000000E+00    0.000000  1.000000E+00    0.000000
  0.040186000  9.973433E-01 -150.602524  4.447768E-05   48.598831  1.000000E+00    0.000000  1.000000E+00    0.000000
  0.040885750  9.970371E-01 -151.162170  1.889751E-05   69.292595  1.000000E+00    0.000000  1.000000E+00    0.000000
  0.041585500  9.971471E-01 -151.712189  2.882052E-05   85.234734  1.000000E+00    0.000000  1.000000E+00    0.000000
  0.042285250  9.974813E-01 -152.196426  5.468304E-05   74.290268  1.000000E+00    0.000000  1.000000E+00    0.000000
  0.042985000  9.968225E-01 -152.742188  4.683598E-05  110.338913  1.000000E+00    0.000000  1.000000E+00    0.000000
  0.043684750  9.967356E-01 -153.195404  3.486453E-05   64.294205  1.000000E+00    0.000000  1.000000E+00    0.000000
  0.044384500  9.968891E-01 -153.682281  5.488568E-05   69.287064  1.000000E+00    0.000000  1.000000E+00    0.000000
  0.045084250  9.970163E-01 -154.171829  2.997873E-05   58.062416  1.000000E+00    0.000000  1.000000E+00    0.000000
  0.045784000  9.964904E-01 -154.645218  6.354842E-06   68.814957  1.000000E+00    0.000000  1.000000E+00    0.000000
  0.046483750  9.971268E-01 -155.071228  2.431932E-05  121.412979  1.000000E+00    0.000000  1.000000E+00    0.000000
  0.047183500  9.968206E-01 -155.515778  1.732858E-05  103.770592  1.000000E+00    0.000000  1.000000E+00    0.000000
  0.047883250  9.966342E-01 -155.940186  1.501835E-05  103.503197  1.000000E+00    0.000000  1.000000E+00    0.000000
  0.048583000  9.966591E-01 -156.352905  3.377259E-05   97.386894  1.000000E+00    0.000000  1.000000E+00    0.000000
  0.049282750  9.969974E-01 -156.739151  1.749654E-05  164.029053  1.000000E+00    0.000000  1.000000E+00    0.000000
  0.049982500  1.001425E+00 -156.991730  2.087802E-05   79.894089  1.000000E+00    0.000000  1.000000E+00    0.000000
  0.050682250  1.001629E+00 -157.403870  4.388154E-05  110.192886  1.000000E+00    0.000000  1.000000E+00    0.000000
  0.051382000  1.001464E+00 -157.811417  4.337852E-05   78.401810  1.000000E+00    0.000000  1.000000E+00    0.000000
  0.052081750  1.001134E+00 -158.118057  7.758362E-05  176.103775  1.000000E+00    0.000000  1.000000E+00    0.000000
  0.052781500  1.001222E+00 -158.516663  2.564216E-05  157.572678  1.000000E+00    0.000000  1.000000E+00    0.000000
  0.053481250  1.000857E+00 -158.885483  8.253381E-05  161.957321  1.000000E+00    0.000000  1.000000E+00    0.000000
  0.054181000  1.000567E+00 -159.186920  4.499479E-05  110.954323  1.000000E+00    0.000000  1.000000E+00    0.000000
  0.054880750  1.000562E+00 -159.524643  6.357444E-05  140.530609  1.000000E+00    0.000000  1.000000E+00    0.000000
  0.055580500  9.996894E-01 -159.909576  6.416781E-05 -154.929337  1.000000E+00    0.000000  1.000000E+00    0.000000
  0.056280250  9.994696E-01 -160.202759  6.094907E-05 -176.975967  1.000000E+00    0.000000  1.000000E+00    0.000000
  0.056980000  9.990975E-01 -160.550949  6.665180E-05  129.951477  1.000000E+00    0.000000  1.000000E+00    0.000000
  0.057679750  9.989644E-01 -160.866302  1.514273E-05  129.287796  1.000000E+00    0.000000  1.000000E+00    0.000000
  0.058379500  9.987804E-01 -161.178162  1.238045E-05  129.071091  1.000000E+00    0.000000  1.000000E+00    0.000000
  0.059079250  9.979218E-01 -161.485901  6.283951E-05  161.464691  1.000000E+00    0.000000  1.000000E+00    0.000000
  0.059779000  9.974791E-01 -161.778625  5.813681E-05  158.302124  1.000000E+00    0.000000  1.000000E+00    0.000000
  0.060478750  9.976828E-01 -162.030014  7.831914E-05 -144.635620  1.000000E+00    0.000000  1.000000E+00    0.000000
  0.061178500  9.967601E-01 -162.356049  2.777094E-05  108.028938  1.000000E+00    0.000000  1.000000E+00    0.000000
  0.061878250  9.966916E-01 -162.624557  5.517939E-05  138.966736  1.000000E+00    0.000000  1.000000E+00    0.000000
  0.062578000  9.956967E-01 -162.960205  5.869358E-05 -153.123337  1.000000E+00    0.000000  1.000000E+00    0.000000
  0.063277750  9.953676E-01 -163.199036  5.958979E-05  178.758408  1.000000E+00    0.000000  1.000000E+00    0.000000
  0.063977500  9.960911E-01 -163.442413  5.829438E-05 -144.459808  1.000000E+00    0.000000  1.000000E+00    0.000000
  0.064677250  9.956016E-01 -163.722015  4.204123E-05 -151.356506  1.000000E+00    0.000000  1.000000E+00    0.000000
  0.065377000  9.946582E-01 -163.966858  4.156690E-05 -164.266373  1.000000E+00    0.000000  1.000000E+00    0.000000
  0.066076750  9.950350E-01 -164.254105  1.552226E-05  122.726311  1.000000E+00    0.000000  1.000000E+00    0.000000
  0.066776500  9.945591E-01 -164.490646  9.622023E-05 -170.084259  1.000000E+00    0.000000  1.000000E+00    0.000000
  0.067476250  9.939944E-01 -164.735275  6.865784E-05 -174.132141  1.000000E+00    0.000000  1.000000E+00    0.000000
  0.068176000  9.942406E-01 -164.971146  6.634125E-05 -141.495682  1.000000E+00    0.000000  1.000000E+00    0.000000
  0.068875750  9.950560E-01 -165.198334  5.881372E-05  176.701843  1.000000E+00    0.000000  1.000000E+00    0.000000
  0.069575500  9.939461E-01 -165.444931  2.032855E-05 -161.243698  1.000000E+00    0.000000  1.000000E+00    0.000000
  0.070275250  9.930562E-01 -165.651230  5.136559E-05 -145.740158  1.000000E+00    0.000000  1.000000E+00    0.000000
  0.070975000  9.933490E-01 -165.910095  6.050870E-05 -177.495407  1.000000E+00    0.000000  1.000000E+00    0.000000
  0.071674750  9.935645E-01 -166.131134  6.806257E-05 -140.949142  1.000000E+00    0.000000  1.000000E+00    0.000000
  0.072374500  9.933379E-01 -166.367752  6.126690E-05 -150.600052  1.000000E+00    0.000000  1.000000E+00    0.000000
  0.073074250  9.938533E-01 -166.592667  3.414678E-05 -116.424057  1.000000E+00    0.000000  1.000000E+00    0.000000
  0.073774000  9.938115E-01 -166.796478  6.009833E-05 -170.044586  1.000000E+00    0.000000  1.000000E+00    0.000000
  0.074473750  9.935076E-01 -167.018433  5.957147E-05 -160.243362  1.000000E+00    0.000000  1.000000E+00    0.000000
  0.075173500  9.935780E-01 -167.242264  4.513646E-05 -144.820221  1.000000E+00    0.000000  1.000000E+00    0.000000
  0.075873250  9.932197E-01 -167.451736  2.421331E-05  176.533234  1.000000E+00    0.000000  1.000000E+00    0.000000
  0.076573000  9.927698E-01 -167.632889  4.541370E-05 -131.605652  1.000000E+00    0.000000  1.000000E+00    0.000000
  0.077272750  9.930899E-01 -167.839981  3.836142E-05 -107.121719  1.000000E+00    0.000000  1.000000E+00    0.000000
  0.077972500  9.927617E-01 -168.056625  3.806487E-05 -131.396088  1.000000E+00    0.000000  1.000000E+00    0.000000
  0.078672250  9.932221E-01 -168.231171  3.305045E-05 -123.125633  1.000000E+00    0.000000  1.000000E+00    0.000000
  0.079372000  9.930355E-01 -168.406036  4.253720E-05  -93.496941  1.000000E+00    0.000000  1.000000E+00    0.000000
  0.080071750  9.927868E-01 -168.591446  3.550660E-05 -104.551048  1.000000E+00    0.000000  1.000000E+00    0.000000
  0.080771500  9.930044E-01 -168.771851  2.888012E-05  -78.590462  1.000000E+00    0.000000  1.000000E+00    0.000000
  0.081471250  9.931560E-01 -168.971329  8.403275E-05  -78.816299  1.000000E+00    0.000000  1.000000E+00    0.000000
  0.082171000  9.927310E-01 -169.160950  4.288778E-05  -67.854027  1.000000E+00    0.000000  1.000000E+00    0.000000
  0.082870750  9.929721E-01 -169.341385  7.922604E-05  -95.094200  1.000000E+00    0.000000  1.000000E+00    0.000000
  0.083570500  9.925093E-01 -169.565247  7.727210E-05  -80.136444  1.000000E+00    0.000000  1.000000E+00    0.000000
  0.084270250  9.926416E-01 -169.686066  4.691414E-05 -109.438133  1.000000E+00    0.000000  1.000000E+00    0.000000
  0.084970000  9.928598E-01 -169.892242  8.328580E-05  -70.258163  1.000000E+00    0.000000  1.000000E+00    0.000000
  0.085669750  9.927843E-01 -170.090607  6.929097E-05  -61.947392  1.000000E+00    0.000000  1.000000E+00    0.000000
  0.086369500  9.924114E-01 -170.232269  5.396009E-05  -45.203918  1.000000E+00    0.000000  1.000000E+00    0.000000
  0.087069250  9.923909E-01 -170.389099  4.822135E-05 -137.763062  1.000000E+00    0.000000  1.000000E+00    0.000000
  0.087769000  9.926160E-01 -170.556183  5.124072E-05  -35.751411  1.000000E+00    0.000000  1.000000E+00    0.000000
  0.088468750  9.930482E-01 -170.706680  6.814456E-05  -44.625378  1.000000E+00    0.000000  1.000000E+00    0.000000
  0.089168500  9.928588E-01 -170.918793  2.585727E-05  -43.212414  1.000000E+00    0.000000  1.000000E+00    0.000000
  0.089868250  9.927132E-01 -171.115356  3.082177E-05  -61.955654  1.000000E+00    0.000000  1.000000E+00    0.000000
  0.090568000  9.923196E-01 -171.209274  5.140127E-05  -60.012917  1.000000E+00    0.000000  1.000000E+00    0.000000
  0.091267750  9.922323E-01 -171.388779  6.416821E-05  -72.041084  1.000000E+00    0.000000  1.000000E+00    0.000000
  0.091967500  9.925681E-01 -171.547562  9.471163E-05  -32.393532  1.000000E+00    0.000000  1.000000E+00    0.000000
  0.092667250  9.921073E-01 -171.658966  4.234928E-05  -40.966797  1.000000E+00    0.000000  1.000000E+00    0.000000
  0.093367000  9.927038E-01 -171.868805  6.573273E-05  -72.013680  1.000000E+00    0.000000  1.000000E+00    0.000000
  0.094066750  9.918780E-01 -172.046585  3.453276E-05  -73.408600  1.000000E+00    0.000000  1.000000E+00    0.000000
  0.094766500  9.923839E-01 -172.166367  5.897056E-05 -116.500175  1.000000E+00    0.000000  1.000000E+00    0.000000
  0.095466250  9.919596E-01 -172.337067  2.452975E-05  -24.275543  1.000000E+00    0.000000  1.000000E+00    0.000000
  0.096166000  9.921826E-01 -172.486588  3.351854E-05  -29.998672  1.000000E+00    0.000000  1.000000E+00    0.000000
  0.096865750  9.923253E-01 -172.627670  5.871200E-05  -53.353016  1.000000E+00    0.000000  1.000000E+00    0.000000
  0.097565500  9.921865E-01 -172.797791  4.848061E-05  -34.180794  1.000000E+00    0.000000  1.000000E+00    0.000000
  0.098265250  9.923792E-01 -172.917480  2.723694E-05  -30.113327  1.000000E+00    0.000000  1.000000E+00    0.000000
  0.098965000  9.931719E-01 -173.080505  5.238727E-05  -40.073582  1.000000E+00    0.000000  1.000000E+00    0.000000
  0.099664750  9.926058E-01 -173.254669  3.707614E-05  -45.534683  1.000000E+00    0.000000  1.000000E+00    0.000000
  0.100364500  9.937822E-01 -173.326080  3.847666E-05  -21.890974  1.000000E+00    0.000000  1.000000E+00    0.000000
  0.101064250  9.928963E-01 -173.452316  4.985695E-05  -31.377583  1.000000E+00    0.000000  1.000000E+00    0.000000
  0.101764000  9.936275E-01 -173.538651  2.374745E-05  -52.944901  1.000000E+00    0.000000  1.000000E+00    0.000000
  0.102463750  9.937146E-01 -173.745102  2.971130E-05   -7.650918  1.000000E+00    0.000000  1.000000E+00    0.000000
  0.103163500  9.938653E-01 -173.869751  5.014969E-05  -23.767826  1.000000E+00    0.000000  1.000000E+00    0.000000
  0.103863250  9.937599E-01 -173.998383  5.900952E-05  -41.913467  1.000000E+00    0.000000  1.000000E+00    0.000000
  0.104563000  9.936185E-01 -174.177887  4.188751E-05  -28.574905  1.000000E+00    0.000000  1.000000E+00    0.000000
  0.105262750  9.928735E-01 -174.240250  5.966284E-05   33.972744  1.000000E+00    0.000000  1.000000E+00    0.000000
  0.105962500  9.934859E-01 -174.408661  2.624027E-05  -24.602112  1.000000E+00    0.000000  1.000000E+00    0.000000
  0.106662250  9.937746E-01 -174.518372  2.478700E-05   -7.169468  1.000000E+00    0.000000  1.000000E+00    0.000000
  0.107362000  9.934013E-01 -174.678680  2.816969E-05  -44.899467  1.000000E+00    0.000000  1.000000E+00    0.000000
  0.108061750  9.930152E-01 -174.813843  4.117671E-05   46.096146  1.000000E+00    0.000000  1.000000E+00    0.000000
  0.108761500  9.935700E-01 -174.902222  5.281418E-05   -7.185499  1.000000E+00    0.000000  1.000000E+00    0.000000
  0.109461250  9.928983E-01 -175.055923  3.273367E-05   63.881927  1.000000E+00    0.000000  1.000000E+00    0.000000
