! Anritsu VNA Master:                           Model: MS2025B
! SN:                                  1642059
! /bd0/PROE/TP1/P2/Lmeas.s2p
! Existing Calibration Information:
! TYPE:                         Current Settings,       Active Cal Settings
! TIME:             	   04/23/2024 08:38:57 AM,    03/12/2018 11:45:53 AM
! INTERNAL TEMP:    	                   42.8 C,                    40.8 C
! # POINTS:         	                     1715,                      4001
! START FREQ:       	                1.000 MHz,                 1.000 MHz
! STOP FREQ:        	        1.200 371 500 GHz,                 2.800 GHz
! SOURCE POWER:     	                  Default,                   Default
! IFBW:             	                    1 kHz,                     1 kHz
! AVG FACTOR:       	                       1 ,                        1 
! REF PLANE 1:      	                     0 mm,                      0 mm
! REF PLANE 2:      	                     0 mm,                      0 mm
! CAL TYPE:         	             1P2P S11,S21,              1P2P S11,S21
! CAL METHOD:       	                     SOLT,                      SOLT
! CAL LINE TYPE:    	                     Coax,                      Coax
! DUT PORT 1:       	                         ,                          
! DUT PORT 2:       	                N-Conn(M),                 N-Conn(M)
! CAL STATUS:       	        OK: Accuracy High,                        --
# GHZ S MA R 50.0
! FREQ.GHZ       S11M         S11A         S21M         S21A         S12M         S12A         S22M         S22A
  0.001000000  9.948385E-01  177.029785  4.035414E-05  -85.594330  1.000000E+00    0.000000  1.000000E+00    0.000000
  0.001699750  9.962520E-01  174.677185  6.510631E-05  -83.871346  1.000000E+00    0.000000  1.000000E+00    0.000000
  0.002399500  9.948233E-01  172.310669  7.479041E-05  -76.412827  1.000000E+00    0.000000  1.000000E+00    0.000000
  0.003099250  9.937501E-01  169.956665  3.180772E-05  -37.486568  1.000000E+00    0.000000  1.000000E+00    0.000000
  0.003799000  9.950683E-01  167.630737  4.987742E-05  -69.167702  1.000000E+00    0.000000  1.000000E+00    0.000000
  0.004498750  9.917644E-01  165.379486  2.889972E-05  -47.123650  1.000000E+00    0.000000  1.000000E+00    0.000000
  0.005198500  9.920158E-01  163.148102  5.277053E-05  -30.124239  1.000000E+00    0.000000  1.000000E+00    0.000000
  0.005898250  9.933186E-01  160.874771  3.873580E-05  -80.724335  1.000000E+00    0.000000  1.000000E+00    0.000000
  0.006598000  9.914763E-01  158.697021  3.341040E-05  -14.092335  1.000000E+00    0.000000  1.000000E+00    0.000000
  0.007297750  9.909939E-01  156.456543  1.842071E-05  -40.391720  1.000000E+00    0.000000  1.000000E+00    0.000000
  0.007997500  9.903994E-01  154.301575  5.804338E-05  -40.599957  1.000000E+00    0.000000  1.000000E+00    0.000000
  0.008697250  9.910712E-01  152.166962  7.875298E-05    5.562724  1.000000E+00    0.000000  1.000000E+00    0.000000
  0.009397000  9.919325E-01  150.005814  4.281285E-05  -41.575535  1.000000E+00    0.000000  1.000000E+00    0.000000
  0.010096750  9.930577E-01  147.865494  6.391903E-05  -53.078110  1.000000E+00    0.000000  1.000000E+00    0.000000
  0.010796500  9.936535E-01  145.775543  5.143372E-05  -57.321804  1.000000E+00    0.000000  1.000000E+00    0.000000
  0.011496250  9.938429E-01  143.748703  9.302275E-05  -17.225227  1.000000E+00    0.000000  1.000000E+00    0.000000
  0.012196000  9.934415E-01  141.660980  4.867328E-05   19.243238  1.000000E+00    0.000000  1.000000E+00    0.000000
  0.012895750  9.933500E-01  139.689163  7.710871E-05  -40.341198  1.000000E+00    0.000000  1.000000E+00    0.000000
  0.013595500  9.946678E-01  137.743912  4.434150E-05   27.163095  1.000000E+00    0.000000  1.000000E+00    0.000000
  0.014295250  9.931565E-01  135.750412  7.027334E-05    0.201647  1.000000E+00    0.000000  1.000000E+00    0.000000
  0.014995000  9.944840E-01  133.853241  5.957294E-05  -18.282120  1.000000E+00    0.000000  1.000000E+00    0.000000
  0.015694750  9.944161E-01  131.971695  5.930147E-05  -10.068494  1.000000E+00    0.000000  1.000000E+00    0.000000
  0.016394500  9.931235E-01  130.106308  3.234175E-05   14.848905  1.000000E+00    0.000000  1.000000E+00    0.000000
  0.017094250  9.935727E-01  128.272110  4.115734E-05   17.071575  1.000000E+00    0.000000  1.000000E+00    0.000000
  0.017794000  9.931729E-01  126.495621  2.543447E-05  -38.004513  1.000000E+00    0.000000  1.000000E+00    0.000000
  0.018493750  9.933968E-01  124.751053  2.762887E-05    7.265942  1.000000E+00    0.000000  1.000000E+00    0.000000
  0.019193500  9.928880E-01  123.001274  1.874846E-05  -85.458633  1.000000E+00    0.000000  1.000000E+00    0.000000
  0.019893250  9.932792E-01  121.269257  4.075193E-05  -43.915096  1.000000E+00    0.000000  1.000000E+00    0.000000
  0.020593000  9.930579E-01  119.582695  4.822177E-05  -21.659538  1.000000E+00    0.000000  1.000000E+00    0.000000
  0.021292750  9.923324E-01  117.872505  4.959562E-05   -3.443114  1.000000E+00    0.000000  1.000000E+00    0.000000
  0.021992500  9.928324E-01  116.259163  3.487823E-05   -2.504954  1.000000E+00    0.000000  1.000000E+00    0.000000
  0.022692250  9.915784E-01  114.655869  3.897633E-05  -16.920120  1.000000E+00    0.000000  1.000000E+00    0.000000
  0.023392000  9.916013E-01  113.092522  4.179445E-05    7.958632  1.000000E+00    0.000000  1.000000E+00    0.000000
  0.024091750  9.917368E-01  111.566162  2.859424E-05  -33.072571  1.000000E+00    0.000000  1.000000E+00    0.000000
  0.024791500  9.908977E-01  109.999016  3.684101E-05  -42.092674  1.000000E+00    0.000000  1.000000E+00    0.000000
  0.025491250  9.954259E-01  108.708542  4.062996E-05   20.637497  1.000000E+00    0.000000  1.000000E+00    0.000000
  0.026191000  9.948007E-01  107.176331  4.244095E-05   14.325395  1.000000E+00    0.000000  1.000000E+00    0.000000
  0.026890750  9.942178E-01  105.695999  1.720552E-05  -50.270706  1.000000E+00    0.000000  1.000000E+00    0.000000
  0.027590500  9.937861E-01  104.279999  1.353305E-05   35.089413  1.000000E+00    0.000000  1.000000E+00    0.000000
  0.028290250  9.931339E-01  102.890274  3.211215E-05    4.876719  1.000000E+00    0.000000  1.000000E+00    0.000000
  0.028990000  9.925071E-01  101.454224  1.389953E-05  -45.424984  1.000000E+00    0.000000  1.000000E+00    0.000000
  0.029689750  9.920119E-01  100.092377  4.003076E-05   -4.232204  1.000000E+00    0.000000  1.000000E+00    0.000000
  0.030389500  9.909889E-01   98.758453  4.126813E-05   17.121214  1.000000E+00    0.000000  1.000000E+00    0.000000
  0.031089250  9.905303E-01   97.447136  4.265987E-05   41.652103  1.000000E+00    0.000000  1.000000E+00    0.000000
  0.031789000  9.900987E-01   96.196045  4.358214E-05   29.488413  1.000000E+00    0.000000  1.000000E+00    0.000000
  0.032488750  9.895627E-01   94.913651  3.841174E-05   27.240547  1.000000E+00    0.000000  1.000000E+00    0.000000
  0.033188500  9.888778E-01   93.635323  3.450951E-05   42.574844  1.000000E+00    0.000000  1.000000E+00    0.000000
  0.033888250  9.886257E-01   92.460838  1.767008E-05   60.251667  1.000000E+00    0.000000  1.000000E+00    0.000000
  0.034588000  9.892488E-01   91.271851  3.560065E-05   37.578953  1.000000E+00    0.000000  1.000000E+00    0.000000
  0.035287750  9.887134E-01   90.096367  2.123991E-05   90.501091  1.000000E+00    0.000000  1.000000E+00    0.000000
  0.035987500  9.878289E-01   88.969215  2.108568E-05   99.402458  1.000000E+00    0.000000  1.000000E+00    0.000000
  0.036687250  9.892820E-01   87.853630  3.227719E-05  106.222145  1.000000E+00    0.000000  1.000000E+00    0.000000
  0.037387000  9.886749E-01   86.734909  5.281870E-05   92.549881  1.000000E+00    0.000000  1.000000E+00    0.000000
  0.038086750  9.888005E-01   85.684486  4.004921E-05  112.175697  1.000000E+00    0.000000  1.000000E+00    0.000000
  0.038786500  9.888220E-01   84.639816  6.382310E-05   96.365662  1.000000E+00    0.000000  1.000000E+00    0.000000
  0.039486250  9.887996E-01   83.611275  1.033172E-05   41.820396  1.000000E+00    0.000000  1.000000E+00    0.000000
  0.040186000  9.888152E-01   82.631783  4.608004E-05   83.076202  1.000000E+00    0.000000  1.000000E+00    0.000000
  0.040885750  9.887909E-01   81.643143  6.132753E-05  101.906494  1.000000E+00    0.000000  1.000000E+00    0.000000
  0.041585500  9.894398E-01   80.640564  6.160752E-05  123.015900  1.000000E+00    0.000000  1.000000E+00    0.000000
  0.042285250  9.893900E-01   79.732437  5.126513E-05   75.899490  1.000000E+00    0.000000  1.000000E+00    0.000000
  0.042985000  9.900334E-01   78.736603  3.605514E-05  102.537308  1.000000E+00    0.000000  1.000000E+00    0.000000
  0.043684750  9.894125E-01   77.855057  4.733740E-05  118.961090  1.000000E+00    0.000000  1.000000E+00    0.000000
  0.044384500  9.900381E-01   76.989082  6.152751E-05  103.985657  1.000000E+00    0.000000  1.000000E+00    0.000000
  0.045084250  9.900347E-01   76.112289  5.148591E-05  117.187866  1.000000E+00    0.000000  1.000000E+00    0.000000
  0.045784000  9.900808E-01   75.295387  6.084814E-05  100.291977  1.000000E+00    0.000000  1.000000E+00    0.000000
  0.046483750  9.901859E-01   74.421120  3.911183E-05  110.182915  1.000000E+00    0.000000  1.000000E+00    0.000000
  0.047183500  9.896009E-01   73.647034  3.716366E-05   85.815720  1.000000E+00    0.000000  1.000000E+00    0.000000
  0.047883250  9.907088E-01   72.831573  7.952163E-05  144.112625  1.000000E+00    0.000000  1.000000E+00    0.000000
  0.048583000  9.908158E-01   72.000237  5.432561E-05  145.963486  1.000000E+00    0.000000  1.000000E+00    0.000000
  0.049282750  9.908054E-01   71.214325  8.494170E-05   91.274269  1.000000E+00    0.000000  1.000000E+00    0.000000
  0.049982500  9.964894E-01   70.585922  8.683626E-05  119.049911  1.000000E+00    0.000000  1.000000E+00    0.000000
  0.050682250  9.970980E-01   69.779617  1.328427E-04  105.263023  1.000000E+00    0.000000  1.000000E+00    0.000000
  0.051382000  9.977022E-01   69.077332  3.641120E-05   86.628952  1.000000E+00    0.000000  1.000000E+00    0.000000
  0.052081750  9.973971E-01   68.318634  1.040370E-04  110.911880  1.000000E+00    0.000000  1.000000E+00    0.000000
  0.052781500  9.978194E-01   67.595177  8.190170E-05 -171.379761  1.000000E+00    0.000000  1.000000E+00    0.000000
  0.053481250  9.967258E-01   66.928024  7.620313E-05  134.996323  1.000000E+00    0.000000  1.000000E+00    0.000000
  0.054181000  9.976843E-01   66.207268  9.157935E-05  119.316917  1.000000E+00    0.000000  1.000000E+00    0.000000
  0.054880750  9.973628E-01   65.561508  7.394882E-05  142.027359  1.000000E+00    0.000000  1.000000E+00    0.000000
  0.055580500  9.968213E-01   64.863815  1.093559E-04  135.616302  1.000000E+00    0.000000  1.000000E+00    0.000000
  0.056280250  9.978618E-01   64.207306  4.464065E-05 -166.540070  1.000000E+00    0.000000  1.000000E+00    0.000000
  0.056980000  9.973923E-01   63.614731  7.691184E-05  114.252174  1.000000E+00    0.000000  1.000000E+00    0.000000
  0.057679750  9.965299E-01   62.991688  5.754142E-05  111.827316  1.000000E+00    0.000000  1.000000E+00    0.000000
  0.058379500  9.963151E-01   62.294426  5.328594E-05  138.474335  1.000000E+00    0.000000  1.000000E+00    0.000000
  0.059079250  9.963799E-01   61.721611  5.629523E-05  132.984070  1.000000E+00    0.000000  1.000000E+00    0.000000
  0.059779000  9.963068E-01   61.096882  8.739177E-05 -172.472763  1.000000E+00    0.000000  1.000000E+00    0.000000
  0.060478750  9.956596E-01   60.501408  7.572027E-05  143.024536  1.000000E+00    0.000000  1.000000E+00    0.000000
  0.061178500  9.952782E-01   59.941761  6.134428E-05 -148.467133  1.000000E+00    0.000000  1.000000E+00    0.000000
  0.061878250  9.943051E-01   59.345123  1.108777E-04  167.479843  1.000000E+00    0.000000  1.000000E+00    0.000000
  0.062578000  9.931726E-01   58.813774  2.662231E-05 -149.231964  1.000000E+00    0.000000  1.000000E+00    0.000000
  0.063277750  9.942847E-01   58.244610  8.072006E-05 -157.686752  1.000000E+00    0.000000  1.000000E+00    0.000000
  0.063977500  9.933933E-01   57.690994  5.990182E-05 -137.163055  1.000000E+00    0.000000  1.000000E+00    0.000000
  0.064677250  9.938789E-01   57.096127  4.947907E-05 -128.608917  1.000000E+00    0.000000  1.000000E+00    0.000000
  0.065377000  9.924822E-01   56.605072  6.116231E-05  151.566864  1.000000E+00    0.000000  1.000000E+00    0.000000
  0.066076750  9.920905E-01   56.070885  9.450823E-05 -149.522064  1.000000E+00    0.000000  1.000000E+00    0.000000
  0.066776500  9.924247E-01   55.569153  7.369370E-05 -139.694519  1.000000E+00    0.000000  1.000000E+00    0.000000
  0.067476250  9.915114E-01   55.049545  4.620946E-05 -162.968552  1.000000E+00    0.000000  1.000000E+00    0.000000
  0.068176000  9.911840E-01   54.544895  3.138948E-05  166.857361  1.000000E+00    0.000000  1.000000E+00    0.000000
  0.068875750  9.913486E-01   54.043789  5.279170E-05 -136.172501  1.000000E+00    0.000000  1.000000E+00    0.000000
  0.069575500  9.902388E-01   53.573284  4.817620E-05  155.018951  1.000000E+00    0.000000  1.000000E+00    0.000000
  0.070275250  9.908692E-01   53.051022  7.634847E-05 -161.677353  1.000000E+00    0.000000  1.000000E+00    0.000000
  0.070975000  9.902462E-01   52.582272  9.484409E-05 -130.187775  1.000000E+00    0.000000  1.000000E+00    0.000000
  0.071674750  9.902976E-01   52.084171  9.370928E-05 -136.363464  1.000000E+00    0.000000  1.000000E+00    0.000000
  0.072374500  9.905297E-01   51.586071  7.011378E-05 -108.674736  1.000000E+00    0.000000  1.000000E+00    0.000000
  0.073074250  9.902723E-01   51.162083  5.918765E-05 -141.171310  1.000000E+00    0.000000  1.000000E+00    0.000000
  0.073774000  9.906641E-01   50.681217  1.100851E-04 -133.191849  1.000000E+00    0.000000  1.000000E+00    0.000000
  0.074473750  9.908269E-01   50.274319  6.585550E-05  -90.546967  1.000000E+00    0.000000  1.000000E+00    0.000000
  0.075173500  9.911547E-01   49.838615  4.884654E-05 -130.185455  1.000000E+00    0.000000  1.000000E+00    0.000000
  0.075873250  9.907272E-01   49.399670  1.049107E-04 -121.964218  1.000000E+00    0.000000  1.000000E+00    0.000000
  0.076573000  9.922962E-01   48.958355  7.273324E-05 -119.808868  1.000000E+00    0.000000  1.000000E+00    0.000000
  0.077272750  9.913751E-01   48.551914  6.345099E-05  -75.588547  1.000000E+00    0.000000  1.000000E+00    0.000000
  0.077972500  9.925087E-01   48.167408  7.443500E-05 -107.763596  1.000000E+00    0.000000  1.000000E+00    0.000000
  0.078672250  9.927382E-01   47.751732  9.366286E-05 -102.259720  1.000000E+00    0.000000  1.000000E+00    0.000000
  0.079372000  9.934466E-01   47.332123  1.049171E-05 -133.220306  1.000000E+00    0.000000  1.000000E+00    0.000000
  0.080071750  9.928443E-01   46.966557  6.307704E-05 -140.145035  1.000000E+00    0.000000  1.000000E+00    0.000000
  0.080771500  9.936073E-01   46.569134  8.968583E-05 -105.801208  1.000000E+00    0.000000  1.000000E+00    0.000000
  0.081471250  9.940556E-01   46.161644  4.060952E-05 -126.932686  1.000000E+00    0.000000  1.000000E+00    0.000000
  0.082171000  9.934694E-01   45.820206  8.784711E-05  -90.630035  1.000000E+00    0.000000  1.000000E+00    0.000000
  0.082870750  9.937432E-01   45.479210  5.794576E-05  -72.937538  1.000000E+00    0.000000  1.000000E+00    0.000000
  0.083570500  9.941065E-01   45.150875  6.951802E-05 -121.298706  1.000000E+00    0.000000  1.000000E+00    0.000000
  0.084270250  9.943473E-01   44.826958  2.116439E-05 -157.298904  1.000000E+00    0.000000  1.000000E+00    0.000000
  0.084970000  9.950230E-01   44.470795  3.325152E-05  -62.161362  1.000000E+00    0.000000  1.000000E+00    0.000000
  0.085669750  9.940406E-01   44.144436  5.528801E-05  -86.631775  1.000000E+00    0.000000  1.000000E+00    0.000000
  0.086369500  9.948293E-01   43.797108  4.949436E-05  -69.879555  1.000000E+00    0.000000  1.000000E+00    0.000000
  0.087069250  9.946816E-01   43.484306  3.714865E-05  -77.205681  1.000000E+00    0.000000  1.000000E+00    0.000000
  0.087769000  9.951012E-01   43.146107  5.532641E-05 -118.164825  1.000000E+00    0.000000  1.000000E+00    0.000000
  0.088468750  9.953473E-01   42.828632  3.047954E-05  -93.358177  1.000000E+00    0.000000  1.000000E+00    0.000000
  0.089168500  9.952651E-01   42.512310  1.180581E-05  -93.788933  1.000000E+00    0.000000  1.000000E+00    0.000000
  0.089868250  9.950666E-01   42.212849  4.461359E-05  -70.280266  1.000000E+00    0.000000  1.000000E+00    0.000000
  0.090568000  9.955035E-01   41.917732  6.141307E-05  -83.693222  1.000000E+00    0.000000  1.000000E+00    0.000000
  0.091267750  9.956236E-01   41.613041  2.734475E-05 -105.457047  1.000000E+00    0.000000  1.000000E+00    0.000000
  0.091967500  9.961049E-01   41.341370  3.020258E-05  -44.287956  1.000000E+00    0.000000  1.000000E+00    0.000000
  0.092667250  9.964150E-01   41.056934  5.698538E-05  -85.665642  1.000000E+00    0.000000  1.000000E+00    0.000000
  0.093367000  9.960660E-01   40.763454  2.479704E-05 -100.377754  1.000000E+00    0.000000  1.000000E+00    0.000000
  0.094066750  9.958636E-01   40.488449  3.285894E-05  -33.184685  1.000000E+00    0.000000  1.000000E+00    0.000000
  0.094766500  9.967915E-01   40.154503  4.230960E-05  -62.687477  1.000000E+00    0.000000  1.000000E+00    0.000000
  0.095466250  9.971722E-01   39.930958  1.769523E-05  -41.505569  1.000000E+00    0.000000  1.000000E+00    0.000000
  0.096166000  9.974214E-01   39.635170  3.283360E-05  -70.170113  1.000000E+00    0.000000  1.000000E+00    0.000000
  0.096865750  9.969002E-01   39.406544  4.120746E-05  -88.508659  1.000000E+00    0.000000  1.000000E+00    0.000000
  0.097565500  9.964905E-01   39.109013  3.818452E-05  -48.670322  1.000000E+00    0.000000  1.000000E+00    0.000000
  0.098265250  9.970608E-01   38.862991  2.200026E-05  -28.459064  1.000000E+00    0.000000  1.000000E+00    0.000000
  0.098965000  9.967491E-01   38.623657  1.563926E-05  -94.942993  1.000000E+00    0.000000  1.000000E+00    0.000000
  0.099664750  9.962828E-01   38.369930  2.677358E-05  -25.064236  1.000000E+00    0.000000  1.000000E+00    0.000000
  0.100364500  9.991081E-01   38.198982  1.540315E-05  -39.050167  1.000000E+00    0.000000  1.000000E+00    0.000000
  0.101064250  9.990565E-01   37.955940  5.863866E-06  -36.777504  1.000000E+00    0.000000  1.000000E+00    0.000000
  0.101764000  9.986922E-01   37.736462  3.796347E-05   -6.080340  1.000000E+00    0.000000  1.000000E+00    0.000000
  0.102463750  9.980141E-01   37.504887  1.434438E-05   -3.961750  1.000000E+00    0.000000  1.000000E+00    0.000000
  0.103163500  9.975251E-01   37.246109  4.728388E-05   14.512468  1.000000E+00    0.000000  1.000000E+00    0.000000
  0.103863250  9.972932E-01   37.068081  4.904689E-05    2.643404  1.000000E+00    0.000000  1.000000E+00    0.000000
  0.104563000  9.968104E-01   36.799362  1.888571E-05   -8.476731  1.000000E+00    0.000000  1.000000E+00    0.000000
  0.105262750  9.973270E-01   36.658978  5.247163E-05   39.469780  1.000000E+00    0.000000  1.000000E+00    0.000000
  0.105962500  9.967902E-01   36.392563  2.590538E-05  -12.902609  1.000000E+00    0.000000  1.000000E+00    0.000000
  0.106662250  9.972404E-01   36.146698  3.113007E-05   31.844036  1.000000E+00    0.000000  1.000000E+00    0.000000
  0.107362000  9.965439E-01   35.943321  1.632890E-05   -4.026288  1.000000E+00    0.000000  1.000000E+00    0.000000
  0.108061750  9.959066E-01   35.674889  2.953803E-05  -37.283413  1.000000E+00    0.000000  1.000000E+00    0.000000
  0.108761500  9.952995E-01   35.517517  2.463115E-05   49.379532  1.000000E+00    0.000000  1.000000E+00    0.000000
  0.109461250  9.950321E-01   35.245068  1.931458E-05   95.067078  1.000000E+00    0.000000  1.000000E+00    0.000000
