! Anritsu VNA Master:                           Model: MS2025B
! SN:                                  1642059
! /bd0/PROE/TP1/P2/Matched.s2p
! Existing Calibration Information:
! TYPE:                         Current Settings,       Active Cal Settings
! TIME:             	   04/23/2024 09:45:54 AM,    03/12/2018 12:18:37 PM
! INTERNAL TEMP:    	                   44.0 C,                    41.3 C
! # POINTS:         	                     2143,                      4001
! START FREQ:       	                1.000 MHz,                 1.000 MHz
! STOP FREQ:        	        1.499 864 500 GHz,                 2.800 GHz
! SOURCE POWER:     	                  Default,                   Default
! IFBW:             	                    1 kHz,                     1 kHz
! AVG FACTOR:       	                       1 ,                        1 
! REF PLANE 1:      	                     0 mm,                      0 mm
! REF PLANE 2:      	                     0 mm,                      0 mm
! CAL TYPE:         	             1P2P S11,S21,              1P2P S11,S21
! CAL METHOD:       	                     SOLT,                      SOLT
! CAL LINE TYPE:    	                     Coax,                      Coax
! DUT PORT 1:       	                         ,                          
! DUT PORT 2:       	                N-Conn(M),                 N-Conn(M)
! CAL STATUS:       	        OK: Accuracy High,                        --
# GHZ S MA R 50.0
! FREQ.GHZ       S11M         S11A         S21M         S21A         S12M         S12A         S22M         S22A
  0.001000000  5.992698E-01 -179.670990  5.888562E-05  -90.770279  1.000000E+00    0.000000  1.000000E+00    0.000000
  0.001699750  5.986685E-01 -179.872711  6.137207E-05 -109.272354  1.000000E+00    0.000000  1.000000E+00    0.000000
  0.002399500  5.981064E-01  179.932358  7.580678E-05  -84.654480  1.000000E+00    0.000000  1.000000E+00    0.000000
  0.003099250  5.975231E-01  179.814575  6.837570E-05  -80.463165  1.000000E+00    0.000000  1.000000E+00    0.000000
  0.003799000  5.977669E-01  179.745697  7.033498E-05  -36.671604  1.000000E+00    0.000000  1.000000E+00    0.000000
  0.004498750  5.973889E-01  179.671799  2.849557E-05    8.704000  1.000000E+00    0.000000  1.000000E+00    0.000000
  0.005198500  5.973705E-01  179.628677  3.127722E-05  -54.259487  1.000000E+00    0.000000  1.000000E+00    0.000000
  0.005898250  5.981688E-01  179.582809  2.443188E-05  -61.097847  1.000000E+00    0.000000  1.000000E+00    0.000000
  0.006598000  5.976617E-01  179.522827  5.281352E-05  -79.742989  1.000000E+00    0.000000  1.000000E+00    0.000000
  0.007297750  5.968680E-01  179.475311  5.019275E-05  -16.141726  1.000000E+00    0.000000  1.000000E+00    0.000000
  0.007997500  5.971846E-01  179.348526  7.410763E-05   -8.098940  1.000000E+00    0.000000  1.000000E+00    0.000000
  0.008697250  5.969427E-01  179.374130  4.042777E-05 -112.884590  1.000000E+00    0.000000  1.000000E+00    0.000000
  0.009397000  5.979645E-01  179.248489  1.013703E-04   -6.853144  1.000000E+00    0.000000  1.000000E+00    0.000000
  0.010096750  5.980036E-01  179.300278  7.547982E-05    8.609366  1.000000E+00    0.000000  1.000000E+00    0.000000
  0.010796500  5.984408E-01  179.217850  4.878086E-05  -46.671608  1.000000E+00    0.000000  1.000000E+00    0.000000
  0.011496250  5.983803E-01  179.187027  7.356250E-05    6.570007  1.000000E+00    0.000000  1.000000E+00    0.000000
  0.012196000  5.982822E-01  179.134537  7.195119E-05  -24.350557  1.000000E+00    0.000000  1.000000E+00    0.000000
  0.012895750  5.987914E-01  179.015961  7.673221E-05  -68.340645  1.000000E+00    0.000000  1.000000E+00    0.000000
  0.013595500  5.982333E-01  179.015533  4.022427E-05   23.345097  1.000000E+00    0.000000  1.000000E+00    0.000000
  0.014295250  5.982180E-01  178.906479  8.218041E-05  -13.657267  1.000000E+00    0.000000  1.000000E+00    0.000000
  0.014995000  5.979292E-01  178.841431  6.340911E-05  -16.751726  1.000000E+00    0.000000  1.000000E+00    0.000000
  0.015694750  5.979867E-01  178.867813  1.645089E-05  -56.746498  1.000000E+00    0.000000  1.000000E+00    0.000000
  0.016394500  5.988419E-01  178.779388  4.046756E-05  -23.897999  1.000000E+00    0.000000  1.000000E+00    0.000000
  0.017094250  5.985752E-01  178.695282  3.746947E-05  -10.386449  1.000000E+00    0.000000  1.000000E+00    0.000000
  0.017794000  5.990432E-01  178.695679  6.897416E-05  -70.119080  1.000000E+00    0.000000  1.000000E+00    0.000000
  0.018493750  5.988436E-01  178.557831  4.770357E-05  -27.473927  1.000000E+00    0.000000  1.000000E+00    0.000000
  0.019193500  5.986347E-01  178.557388  3.811602E-05  -16.093380  1.000000E+00    0.000000  1.000000E+00    0.000000
  0.019893250  5.992751E-01  178.523239  5.823133E-05   42.880692  1.000000E+00    0.000000  1.000000E+00    0.000000
  0.020593000  5.990516E-01  178.431137  8.080842E-05   25.776585  1.000000E+00    0.000000  1.000000E+00    0.000000
  0.021292750  5.986424E-01  178.438156  2.465449E-05   -8.438147  1.000000E+00    0.000000  1.000000E+00    0.000000
  0.021992500  5.988113E-01  178.410828  5.155550E-05  -14.338129  1.000000E+00    0.000000  1.000000E+00    0.000000
  0.022692250  5.986261E-01  178.284912  5.223114E-05   16.073442  1.000000E+00    0.000000  1.000000E+00    0.000000
  0.023392000  5.988965E-01  178.230804  4.920291E-05   -2.697220  1.000000E+00    0.000000  1.000000E+00    0.000000
  0.024091750  5.995660E-01  178.224091  3.231326E-05   39.505600  1.000000E+00    0.000000  1.000000E+00    0.000000
  0.024791500  5.994769E-01  178.224258  7.105180E-05    0.692914  1.000000E+00    0.000000  1.000000E+00    0.000000
  0.025491250  6.004833E-01  178.212158  4.064903E-06   35.549507  1.000000E+00    0.000000  1.000000E+00    0.000000
  0.026191000  6.003950E-01  178.152802  5.665257E-05    0.207421  1.000000E+00    0.000000  1.000000E+00    0.000000
  0.026890750  6.009424E-01  178.117188  7.383512E-05   17.981068  1.000000E+00    0.000000  1.000000E+00    0.000000
  0.027590500  6.004593E-01  178.037262  7.848562E-05   37.573723  1.000000E+00    0.000000  1.000000E+00    0.000000
  0.028290250  6.006292E-01  177.985596  4.907126E-05   36.794540  1.000000E+00    0.000000  1.000000E+00    0.000000
  0.028990000  6.000413E-01  177.922775  6.967770E-05   34.014309  1.000000E+00    0.000000  1.000000E+00    0.000000
  0.029689750  5.998130E-01  177.863342  2.729708E-05   72.187256  1.000000E+00    0.000000  1.000000E+00    0.000000
  0.030389500  6.000645E-01  177.839600  4.900134E-05   31.873993  1.000000E+00    0.000000  1.000000E+00    0.000000
  0.031089250  5.993524E-01  177.805954  3.081539E-05   13.367620  1.000000E+00    0.000000  1.000000E+00    0.000000
  0.031789000  5.991069E-01  177.732986  6.060470E-05   51.641098  1.000000E+00    0.000000  1.000000E+00    0.000000
  0.032488750  5.993326E-01  177.691132  6.048973E-05   36.693169  1.000000E+00    0.000000  1.000000E+00    0.000000
  0.033188500  5.992584E-01  177.681763  2.601092E-05   19.779648  1.000000E+00    0.000000  1.000000E+00    0.000000
  0.033888250  5.993667E-01  177.620865  1.455553E-05   90.242363  1.000000E+00    0.000000  1.000000E+00    0.000000
  0.034588000  5.990833E-01  177.548431  8.015797E-05   30.792162  1.000000E+00    0.000000  1.000000E+00    0.000000
  0.035287750  5.989747E-01  177.572098  4.196311E-05   60.297306  1.000000E+00    0.000000  1.000000E+00    0.000000
  0.035987500  5.989843E-01  177.488617  4.249944E-05   87.145332  1.000000E+00    0.000000  1.000000E+00    0.000000
  0.036687250  5.988073E-01  177.477417  5.147372E-05   52.116142  1.000000E+00    0.000000  1.000000E+00    0.000000
  0.037387000  5.987721E-01  177.445358  2.898802E-05   48.277531  1.000000E+00    0.000000  1.000000E+00    0.000000
  0.038086750  5.987040E-01  177.392212  4.541956E-05   61.560905  1.000000E+00    0.000000  1.000000E+00    0.000000
  0.038786500  5.987857E-01  177.351410  3.635542E-05   92.892624  1.000000E+00    0.000000  1.000000E+00    0.000000
  0.039486250  5.979221E-01  177.301208  4.570530E-05   50.767139  1.000000E+00    0.000000  1.000000E+00    0.000000
  0.040186000  5.984420E-01  177.274521  3.818729E-05   84.286819  1.000000E+00    0.000000  1.000000E+00    0.000000
  0.040885750  5.986207E-01  177.225464  5.352799E-05   87.858261  1.000000E+00    0.000000  1.000000E+00    0.000000
  0.041585500  5.984341E-01  177.161728  5.567850E-05   46.541191  1.000000E+00    0.000000  1.000000E+00    0.000000
  0.042285250  5.978482E-01  177.140793  3.838662E-05   41.548359  1.000000E+00    0.000000  1.000000E+00    0.000000
  0.042985000  5.981630E-01  177.092484  4.809984E-05   56.950348  1.000000E+00    0.000000  1.000000E+00    0.000000
  0.043684750  5.979742E-01  177.076599  3.442614E-05   52.689621  1.000000E+00    0.000000  1.000000E+00    0.000000
  0.044384500  5.978270E-01  177.017090  3.870377E-05  100.269775  1.000000E+00    0.000000  1.000000E+00    0.000000
  0.045084250  5.973670E-01  177.014084  2.937881E-05  146.795944  1.000000E+00    0.000000  1.000000E+00    0.000000
  0.045784000  5.976056E-01  176.905045  1.693706E-05  148.234787  1.000000E+00    0.000000  1.000000E+00    0.000000
  0.046483750  5.974399E-01  176.858292  3.802944E-05   68.404984  1.000000E+00    0.000000  1.000000E+00    0.000000
  0.047183500  5.973144E-01  176.829315  6.592104E-05   92.402321  1.000000E+00    0.000000  1.000000E+00    0.000000
  0.047883250  5.975303E-01  176.802322  7.150292E-05  128.372742  1.000000E+00    0.000000  1.000000E+00    0.000000
  0.048583000  5.972530E-01  176.756149  5.506447E-05  118.025574  1.000000E+00    0.000000  1.000000E+00    0.000000
  0.049282750  5.972567E-01  176.704514  4.775032E-05  126.010040  1.000000E+00    0.000000  1.000000E+00    0.000000
  0.049982500  5.989898E-01  176.769714  7.337333E-05  163.209412  1.000000E+00    0.000000  1.000000E+00    0.000000
  0.050682250  5.993499E-01  176.699860  6.498683E-05  121.392487  1.000000E+00    0.000000  1.000000E+00    0.000000
  0.051382000  5.984911E-01  176.673965  4.663829E-05  142.228516  1.000000E+00    0.000000  1.000000E+00    0.000000
  0.052081750  5.989282E-01  176.583923  1.446044E-05  142.544022  1.000000E+00    0.000000  1.000000E+00    0.000000
  0.052781500  5.984350E-01  176.555588  4.100690E-05  147.992828  1.000000E+00    0.000000  1.000000E+00    0.000000
  0.053481250  5.980482E-01  176.547897  3.437443E-05  131.084320  1.000000E+00    0.000000  1.000000E+00    0.000000
  0.054181000  5.980979E-01  176.513733  3.977304E-05  141.335983  1.000000E+00    0.000000  1.000000E+00    0.000000
  0.054880750  5.978540E-01  176.461304  3.480553E-05 -177.522476  1.000000E+00    0.000000  1.000000E+00    0.000000
  0.055580500  5.979355E-01  176.353607  8.184252E-05  113.259201  1.000000E+00    0.000000  1.000000E+00    0.000000
  0.056280250  5.978736E-01  176.342728  6.293907E-05  118.904945  1.000000E+00    0.000000  1.000000E+00    0.000000
  0.056980000  5.978331E-01  176.323746  7.617425E-05  140.487793  1.000000E+00    0.000000  1.000000E+00    0.000000
  0.057679750  5.972695E-01  176.215454  5.001961E-05  169.824081  1.000000E+00    0.000000  1.000000E+00    0.000000
  0.058379500  5.970169E-01  176.235809  6.480300E-05  163.124100  1.000000E+00    0.000000  1.000000E+00    0.000000
  0.059079250  5.969297E-01  176.150635  8.974550E-05  131.390915  1.000000E+00    0.000000  1.000000E+00    0.000000
  0.059779000  5.968009E-01  176.046921  5.788058E-05  129.789795  1.000000E+00    0.000000  1.000000E+00    0.000000
  0.060478750  5.960230E-01  176.017715  6.815432E-05 -147.182861  1.000000E+00    0.000000  1.000000E+00    0.000000
  0.061178500  5.962750E-01  176.004730  8.544468E-05 -167.797791  1.000000E+00    0.000000  1.000000E+00    0.000000
  0.061878250  5.958067E-01  175.940704  4.553445E-05  163.359116  1.000000E+00    0.000000  1.000000E+00    0.000000
  0.062578000  5.957702E-01  175.911438  3.056119E-05 -159.915070  1.000000E+00    0.000000  1.000000E+00    0.000000
  0.063277750  5.958531E-01  175.852982  8.421056E-05  161.329300  1.000000E+00    0.000000  1.000000E+00    0.000000
  0.063977500  5.949808E-01  175.807861  6.022610E-05 -131.937134  1.000000E+00    0.000000  1.000000E+00    0.000000
  0.064677250  5.952837E-01  175.750214  3.739445E-05 -158.658356  1.000000E+00    0.000000  1.000000E+00    0.000000
  0.065377000  5.951569E-01  175.704300  6.669105E-05 -145.813950  1.000000E+00    0.000000  1.000000E+00    0.000000
  0.066076750  5.946527E-01  175.700180  3.777845E-05 -125.186234  1.000000E+00    0.000000  1.000000E+00    0.000000
  0.066776500  5.943586E-01  175.602600  7.944447E-05  173.137436  1.000000E+00    0.000000  1.000000E+00    0.000000
  0.067476250  5.943201E-01  175.559296  5.211468E-05 -155.668793  1.000000E+00    0.000000  1.000000E+00    0.000000
  0.068176000  5.942180E-01  175.498444  5.426123E-05  138.734711  1.000000E+00    0.000000  1.000000E+00    0.000000
  0.068875750  5.939994E-01  175.454330  3.995606E-05 -107.595474  1.000000E+00    0.000000  1.000000E+00    0.000000
  0.069575500  5.937014E-01  175.413284  8.145181E-05 -154.931000  1.000000E+00    0.000000  1.000000E+00    0.000000
  0.070275250  5.938044E-01  175.372864  7.817795E-05 -157.463425  1.000000E+00    0.000000  1.000000E+00    0.000000
  0.070975000  5.936406E-01  175.284271  3.205817E-05 -155.185562  1.000000E+00    0.000000  1.000000E+00    0.000000
  0.071674750  5.935659E-01  175.235703  4.321468E-05 -132.664001  1.000000E+00    0.000000  1.000000E+00    0.000000
  0.072374500  5.930568E-01  175.182892  6.252929E-05 -123.515244  1.000000E+00    0.000000  1.000000E+00    0.000000
  0.073074250  5.929069E-01  175.132919  4.294791E-05  -93.705902  1.000000E+00    0.000000  1.000000E+00    0.000000
  0.073774000  5.924586E-01  175.058960  3.237744E-05 -134.960709  1.000000E+00    0.000000  1.000000E+00    0.000000
  0.074473750  5.930507E-01  175.005524  6.592156E-05 -135.614105  1.000000E+00    0.000000  1.000000E+00    0.000000
  0.075173500  5.926188E-01  174.927643  2.343458E-05 -122.897476  1.000000E+00    0.000000  1.000000E+00    0.000000
  0.075873250  5.925999E-01  174.876373  4.057626E-05 -131.908829  1.000000E+00    0.000000  1.000000E+00    0.000000
  0.076573000  5.923032E-01  174.870438  4.141330E-05 -137.376068  1.000000E+00    0.000000  1.000000E+00    0.000000
  0.077272750  5.923101E-01  174.800644  5.446879E-05 -131.462219  1.000000E+00    0.000000  1.000000E+00    0.000000
  0.077972500  5.919222E-01  174.768997  5.594964E-05 -149.359161  1.000000E+00    0.000000  1.000000E+00    0.000000
  0.078672250  5.916423E-01  174.697021  6.830232E-05 -114.081886  1.000000E+00    0.000000  1.000000E+00    0.000000
  0.079372000  5.917686E-01  174.681549  2.938898E-05 -137.827316  1.000000E+00    0.000000  1.000000E+00    0.000000
  0.080071750  5.916051E-01  174.593262  2.574402E-05  -69.339134  1.000000E+00    0.000000  1.000000E+00    0.000000
  0.080771500  5.912891E-01  174.506149  2.914431E-05 -109.376747  1.000000E+00    0.000000  1.000000E+00    0.000000
  0.081471250  5.909200E-01  174.480331  5.554816E-05 -130.783081  1.000000E+00    0.000000  1.000000E+00    0.000000
  0.082171000  5.907359E-01  174.391495  5.356384E-05  -79.674553  1.000000E+00    0.000000  1.000000E+00    0.000000
  0.082870750  5.907750E-01  174.356003  5.412536E-05 -101.262268  1.000000E+00    0.000000  1.000000E+00    0.000000
  0.083570500  5.902125E-01  174.292007  5.599260E-05  -59.748596  1.000000E+00    0.000000  1.000000E+00    0.000000
  0.084270250  5.904531E-01  174.236191  3.645948E-05  -63.629059  1.000000E+00    0.000000  1.000000E+00    0.000000
  0.084970000  5.902430E-01  174.161270  7.158993E-07  -82.001602  1.000000E+00    0.000000  1.000000E+00    0.000000
  0.085669750  5.897787E-01  174.090088  5.555902E-05  -59.840080  1.000000E+00    0.000000  1.000000E+00    0.000000
  0.086369500  5.897669E-01  174.024139  7.150604E-05  -57.666836  1.000000E+00    0.000000  1.000000E+00    0.000000
  0.087069250  5.900329E-01  173.934723  6.701905E-05  -48.803337  1.000000E+00    0.000000  1.000000E+00    0.000000
  0.087769000  5.894803E-01  173.848419  6.166165E-05  -38.896973  1.000000E+00    0.000000  1.000000E+00    0.000000
  0.088468750  5.892891E-01  173.838577  6.104129E-05  -29.710770  1.000000E+00    0.000000  1.000000E+00    0.000000
  0.089168500  5.897170E-01  173.732224  6.581538E-05  -82.635109  1.000000E+00    0.000000  1.000000E+00    0.000000
  0.089868250  5.895886E-01  173.729202  4.364049E-05  -86.267128  1.000000E+00    0.000000  1.000000E+00    0.000000
  0.090568000  5.894748E-01  173.636597  3.684032E-05  -74.984299  1.000000E+00    0.000000  1.000000E+00    0.000000
  0.091267750  5.891238E-01  173.597092  6.144214E-05  -45.029472  1.000000E+00    0.000000  1.000000E+00    0.000000
  0.091967500  5.893785E-01  173.535446  4.755820E-05  -36.021286  1.000000E+00    0.000000  1.000000E+00    0.000000
  0.092667250  5.892531E-01  173.429688  5.849535E-05  -34.300533  1.000000E+00    0.000000  1.000000E+00    0.000000
  0.093367000  5.890787E-01  173.339539  3.163138E-05  -48.776299  1.000000E+00    0.000000  1.000000E+00    0.000000
  0.094066750  5.892378E-01  173.311081  4.812194E-05  -54.550224  1.000000E+00    0.000000  1.000000E+00    0.000000
  0.094766500  5.885850E-01  173.244019  3.164273E-05  -20.472906  1.000000E+00    0.000000  1.000000E+00    0.000000
  0.095466250  5.888411E-01  173.192657  2.004921E-05  -22.325005  1.000000E+00    0.000000  1.000000E+00    0.000000
  0.096166000  5.889841E-01  173.168930  4.183050E-05  -29.256012  1.000000E+00    0.000000  1.000000E+00    0.000000
  0.096865750  5.891416E-01  173.064789  3.454620E-05  -27.744165  1.000000E+00    0.000000  1.000000E+00    0.000000
  0.097565500  5.889578E-01  173.036911  2.780101E-05  -60.395687  1.000000E+00    0.000000  1.000000E+00    0.000000
  0.098265250  5.884702E-01  172.977020  3.493601E-05  -39.909431  1.000000E+00    0.000000  1.000000E+00    0.000000
  0.098965000  5.889739E-01  172.936630  5.077139E-05   -4.138622  1.000000E+00    0.000000  1.000000E+00    0.000000
  0.099664750  5.886507E-01  172.892227  1.690614E-05  116.932617  1.000000E+00    0.000000  1.000000E+00    0.000000
  0.100364500  5.888734E-01  172.821823  4.376282E-05  -33.632114  1.000000E+00    0.000000  1.000000E+00    0.000000
  0.101064250  5.881948E-01  172.796326  2.811444E-05   -4.444351  1.000000E+00    0.000000  1.000000E+00    0.000000
  0.101764000  5.887200E-01  172.762238  3.714324E-05  -15.621058  1.000000E+00    0.000000  1.000000E+00    0.000000
  0.102463750  5.887024E-01  172.667435  1.259757E-05   56.068718  1.000000E+00    0.000000  1.000000E+00    0.000000
  0.103163500  5.882940E-01  172.640045  6.944423E-05   47.876820  1.000000E+00    0.000000  1.000000E+00    0.000000
  0.103863250  5.888202E-01  172.566116  2.862003E-05  -41.093624  1.000000E+00    0.000000  1.000000E+00    0.000000
  0.104563000  5.882474E-01  172.500900  4.818104E-05  -21.524273  1.000000E+00    0.000000  1.000000E+00    0.000000
  0.105262750  5.882376E-01  172.432312  4.535452E-05   17.568668  1.000000E+00    0.000000  1.000000E+00    0.000000
  0.105962500  5.879750E-01  172.405212  5.664518E-05  -42.871349  1.000000E+00    0.000000  1.000000E+00    0.000000
  0.106662250  5.877675E-01  172.371124  2.737151E-05  -36.528404  1.000000E+00    0.000000  1.000000E+00    0.000000
  0.107362000  5.879221E-01  172.281906  5.538522E-05   20.131104  1.000000E+00    0.000000  1.000000E+00    0.000000
  0.108061750  5.883663E-01  172.259277  2.636884E-05    0.618721  1.000000E+00    0.000000  1.000000E+00    0.000000
  0.108761500  5.879065E-01  172.209976  2.089908E-05   86.736946  1.000000E+00    0.000000  1.000000E+00    0.000000
  0.109461250  5.875069E-01  172.158325  4.916164E-05   13.906359  1.000000E+00    0.000000  1.000000E+00    0.000000
