! Anritsu VNA Master:                           Model: MS2025B
! SN:                                  1642059
! /bd0/PROE/TP1/P2/RLCpar.s2p
! Existing Calibration Information:
! TYPE:                         Current Settings,       Active Cal Settings
! TIME:             	   04/23/2024 09:10:55 AM,    03/12/2018 11:45:53 AM
! INTERNAL TEMP:    	                   43.5 C,                    40.8 C
! # POINTS:         	                     1715,                      4001
! START FREQ:       	                1.000 MHz,                 1.000 MHz
! STOP FREQ:        	        1.200 371 500 GHz,                 2.800 GHz
! SOURCE POWER:     	                  Default,                   Default
! IFBW:             	                    1 kHz,                     1 kHz
! AVG FACTOR:       	                       1 ,                        1 
! REF PLANE 1:      	                     0 mm,                      0 mm
! REF PLANE 2:      	                     0 mm,                      0 mm
! CAL TYPE:         	             1P2P S11,S21,              1P2P S11,S21
! CAL METHOD:       	                     SOLT,                      SOLT
! CAL LINE TYPE:    	                     Coax,                      Coax
! DUT PORT 1:       	                         ,                          
! DUT PORT 2:       	                N-Conn(M),                 N-Conn(M)
! CAL STATUS:       	        OK: Accuracy High,                        --
# GHZ S MA R 50.0
! FREQ.GHZ       S11M         S11A         S21M         S21A         S12M         S12A         S22M         S22A
  0.001000000  9.976639E-01  178.667282  2.989298E-05 -165.157089  1.000000E+00    0.000000  1.000000E+00    0.000000
  0.001699750  9.957759E-01  177.383713  3.897565E-05  -33.552547  1.000000E+00    0.000000  1.000000E+00    0.000000
  0.002399500  9.958714E-01  175.955292  6.811960E-05  -82.493355  1.000000E+00    0.000000  1.000000E+00    0.000000
  0.003099250  9.933185E-01  174.648590  3.646941E-05  -47.467983  1.000000E+00    0.000000  1.000000E+00    0.000000
  0.003799000  9.942707E-01  173.362793  3.196121E-05  -75.126183  1.000000E+00    0.000000  1.000000E+00    0.000000
  0.004498750  9.896159E-01  172.100021  5.494426E-05  -34.788914  1.000000E+00    0.000000  1.000000E+00    0.000000
  0.005198500  9.873621E-01  170.862289  5.331600E-05  -33.321342  1.000000E+00    0.000000  1.000000E+00    0.000000
  0.005898250  9.875182E-01  169.582428  4.311277E-05  -50.419685  1.000000E+00    0.000000  1.000000E+00    0.000000
  0.006598000  9.849441E-01  168.393967  2.780083E-05    2.771930  1.000000E+00    0.000000  1.000000E+00    0.000000
  0.007297750  9.816176E-01  167.097198  9.712241E-05  -30.393488  1.000000E+00    0.000000  1.000000E+00    0.000000
  0.007997500  9.793799E-01  165.930740  4.198891E-05 -100.103256  1.000000E+00    0.000000  1.000000E+00    0.000000
  0.008697250  9.777642E-01  164.682297  5.310513E-05  -82.910286  1.000000E+00    0.000000  1.000000E+00    0.000000
  0.009397000  9.770478E-01  163.391983  7.330220E-05  -18.706570  1.000000E+00    0.000000  1.000000E+00    0.000000
  0.010096750  9.743584E-01  162.154221  5.821056E-05  -34.605255  1.000000E+00    0.000000  1.000000E+00    0.000000
  0.010796500  9.719983E-01  160.942429  4.668634E-05  -24.056643  1.000000E+00    0.000000  1.000000E+00    0.000000
  0.011496250  9.692013E-01  159.730164  4.061767E-05   -3.582496  1.000000E+00    0.000000  1.000000E+00    0.000000
  0.012196000  9.656318E-01  158.433105  3.818579E-05  -44.738892  1.000000E+00    0.000000  1.000000E+00    0.000000
  0.012895750  9.629940E-01  157.226028  4.858060E-05  -79.552437  1.000000E+00    0.000000  1.000000E+00    0.000000
  0.013595500  9.594710E-01  156.019012  2.554541E-05    6.232968  1.000000E+00    0.000000  1.000000E+00    0.000000
  0.014295250  9.557699E-01  154.741287  3.421755E-05  -36.556301  1.000000E+00    0.000000  1.000000E+00    0.000000
  0.014995000  9.519194E-01  153.550980  6.024905E-05  -14.515856  1.000000E+00    0.000000  1.000000E+00    0.000000
  0.015694750  9.481330E-01  152.294678  5.597662E-05   17.841082  1.000000E+00    0.000000  1.000000E+00    0.000000
  0.016394500  9.433123E-01  151.055603  4.472493E-05  -54.248932  1.000000E+00    0.000000  1.000000E+00    0.000000
  0.017094250  9.384702E-01  149.859268  3.362900E-05   11.889916  1.000000E+00    0.000000  1.000000E+00    0.000000
  0.017794000  9.351164E-01  148.664688  3.911344E-05   29.382292  1.000000E+00    0.000000  1.000000E+00    0.000000
  0.018493750  9.298488E-01  147.454788  3.096844E-05   14.443175  1.000000E+00    0.000000  1.000000E+00    0.000000
  0.019193500  9.252058E-01  146.186584  3.248260E-05    4.150591  1.000000E+00    0.000000  1.000000E+00    0.000000
  0.019893250  9.204717E-01  144.948456  4.831126E-05   -8.935086  1.000000E+00    0.000000  1.000000E+00    0.000000
  0.020593000  9.152239E-01  143.720001  2.227344E-05   -8.378754  1.000000E+00    0.000000  1.000000E+00    0.000000
  0.021292750  9.092846E-01  142.456970  3.600123E-05   21.348705  1.000000E+00    0.000000  1.000000E+00    0.000000
  0.021992500  9.038973E-01  141.259476  1.609473E-05   41.957497  1.000000E+00    0.000000  1.000000E+00    0.000000
  0.022692250  8.978901E-01  140.057831  4.006148E-05    2.149231  1.000000E+00    0.000000  1.000000E+00    0.000000
  0.023392000  8.922994E-01  138.780472  3.012400E-05   -5.792257  1.000000E+00    0.000000  1.000000E+00    0.000000
  0.024091750  8.862556E-01  137.555710  4.755030E-05   -2.705373  1.000000E+00    0.000000  1.000000E+00    0.000000
  0.024791500  8.797063E-01  136.257523  3.353095E-05   25.065266  1.000000E+00    0.000000  1.000000E+00    0.000000
  0.025491250  8.785685E-01  135.197632  5.151221E-05  -13.536279  1.000000E+00    0.000000  1.000000E+00    0.000000
  0.026191000  8.726892E-01  133.948471  1.914708E-05  -81.245331  1.000000E+00    0.000000  1.000000E+00    0.000000
  0.026890750  8.654385E-01  132.638107  3.337124E-05   -5.247030  1.000000E+00    0.000000  1.000000E+00    0.000000
  0.027590500  8.587986E-01  131.366226  4.074464E-05   59.912956  1.000000E+00    0.000000  1.000000E+00    0.000000
  0.028290250  8.509852E-01  130.083038  4.448432E-05   30.998018  1.000000E+00    0.000000  1.000000E+00    0.000000
  0.028990000  8.445541E-01  128.757980  5.741062E-05   16.166901  1.000000E+00    0.000000  1.000000E+00    0.000000
  0.029689750  8.373520E-01  127.480888  4.895209E-05   57.163300  1.000000E+00    0.000000  1.000000E+00    0.000000
  0.030389500  8.291854E-01  126.182991  5.690790E-05   39.194202  1.000000E+00    0.000000  1.000000E+00    0.000000
  0.031089250  8.213930E-01  124.922073  3.851208E-05   38.863178  1.000000E+00    0.000000  1.000000E+00    0.000000
  0.031789000  8.141234E-01  123.611656  3.211802E-05   52.412056  1.000000E+00    0.000000  1.000000E+00    0.000000
  0.032488750  8.063077E-01  122.315437  4.180406E-05    7.701208  1.000000E+00    0.000000  1.000000E+00    0.000000
  0.033188500  7.988015E-01  120.988098  2.336419E-05   53.167526  1.000000E+00    0.000000  1.000000E+00    0.000000
  0.033888250  7.913418E-01  119.698898  5.053200E-05   49.201427  1.000000E+00    0.000000  1.000000E+00    0.000000
  0.034588000  7.836522E-01  118.387794  4.777945E-05   73.157753  1.000000E+00    0.000000  1.000000E+00    0.000000
  0.035287750  7.756912E-01  117.065300  5.753255E-05   48.081009  1.000000E+00    0.000000  1.000000E+00    0.000000
  0.035987500  7.680063E-01  115.753754  3.968132E-05   28.163570  1.000000E+00    0.000000  1.000000E+00    0.000000
  0.036687250  7.605505E-01  114.443703  3.143549E-05   69.187645  1.000000E+00    0.000000  1.000000E+00    0.000000
  0.037387000  7.528226E-01  113.084175  2.527954E-05  178.866974  1.000000E+00    0.000000  1.000000E+00    0.000000
  0.038086750  7.449575E-01  111.747223  7.044621E-05   87.243690  1.000000E+00    0.000000  1.000000E+00    0.000000
  0.038786500  7.371812E-01  110.412872  5.516850E-05   74.108231  1.000000E+00    0.000000  1.000000E+00    0.000000
  0.039486250  7.291636E-01  109.060890  4.337815E-05   78.910561  1.000000E+00    0.000000  1.000000E+00    0.000000
  0.040186000  7.213305E-01  107.718483  3.216722E-05  101.553024  1.000000E+00    0.000000  1.000000E+00    0.000000
  0.040885750  7.136640E-01  106.347542  6.158036E-05   85.523445  1.000000E+00    0.000000  1.000000E+00    0.000000
  0.041585500  7.059728E-01  104.951759  4.116147E-05   84.005508  1.000000E+00    0.000000  1.000000E+00    0.000000
  0.042285250  6.979457E-01  103.573448  5.489288E-05   78.099091  1.000000E+00    0.000000  1.000000E+00    0.000000
  0.042985000  6.909026E-01  102.192207  4.204738E-05   58.461468  1.000000E+00    0.000000  1.000000E+00    0.000000
  0.043684750  6.825270E-01  100.757629  6.840565E-05  109.224892  1.000000E+00    0.000000  1.000000E+00    0.000000
  0.044384500  6.751037E-01   99.349686  3.082746E-05   94.549995  1.000000E+00    0.000000  1.000000E+00    0.000000
  0.045084250  6.677626E-01   97.955444  3.433201E-05   45.986118  1.000000E+00    0.000000  1.000000E+00    0.000000
  0.045784000  6.601645E-01   96.533546  2.982239E-05   79.148300  1.000000E+00    0.000000  1.000000E+00    0.000000
  0.046483750  6.520593E-01   95.186119  5.160912E-05   91.526932  1.000000E+00    0.000000  1.000000E+00    0.000000
  0.047183500  6.448430E-01   93.731339  5.667881E-05  133.168793  1.000000E+00    0.000000  1.000000E+00    0.000000
  0.047883250  6.372815E-01   92.236755  7.999497E-06  106.651779  1.000000E+00    0.000000  1.000000E+00    0.000000
  0.048583000  6.294726E-01   90.827385  4.111366E-05  179.700333  1.000000E+00    0.000000  1.000000E+00    0.000000
  0.049282750  6.220511E-01   89.333473  6.972108E-05  134.332077  1.000000E+00    0.000000  1.000000E+00    0.000000
  0.049982500  6.189606E-01   87.990486  8.413846E-05   96.574211  1.000000E+00    0.000000  1.000000E+00    0.000000
  0.050682250  6.116098E-01   86.519989  8.650347E-05   82.612869  1.000000E+00    0.000000  1.000000E+00    0.000000
  0.051382000  6.048821E-01   85.008293  5.148222E-05  110.013199  1.000000E+00    0.000000  1.000000E+00    0.000000
  0.052081750  5.965192E-01   83.527481  5.519540E-05  172.182297  1.000000E+00    0.000000  1.000000E+00    0.000000
  0.052781500  5.898772E-01   81.941849  3.964635E-05  141.365875  1.000000E+00    0.000000  1.000000E+00    0.000000
  0.053481250  5.823251E-01   80.474480  1.021334E-04  120.892258  1.000000E+00    0.000000  1.000000E+00    0.000000
  0.054181000  5.744408E-01   78.860405  2.343394E-05   77.433983  1.000000E+00    0.000000  1.000000E+00    0.000000
  0.054880750  5.676484E-01   77.270851  6.600643E-05  125.427078  1.000000E+00    0.000000  1.000000E+00    0.000000
  0.055580500  5.599458E-01   75.688705  2.739608E-05  117.049637  1.000000E+00    0.000000  1.000000E+00    0.000000
  0.056280250  5.531930E-01   74.130081  6.878457E-05  129.673279  1.000000E+00    0.000000  1.000000E+00    0.000000
  0.056980000  5.460882E-01   72.535408  8.250332E-05  119.882385  1.000000E+00    0.000000  1.000000E+00    0.000000
  0.057679750  5.386538E-01   70.913864  5.807619E-05  140.840408  1.000000E+00    0.000000  1.000000E+00    0.000000
  0.058379500  5.317608E-01   69.227425  6.852811E-05  145.728104  1.000000E+00    0.000000  1.000000E+00    0.000000
  0.059079250  5.256609E-01   67.577225  6.951037E-05  139.310104  1.000000E+00    0.000000  1.000000E+00    0.000000
  0.059779000  5.187711E-01   65.911629  9.936880E-05  162.559525  1.000000E+00    0.000000  1.000000E+00    0.000000
  0.060478750  5.121081E-01   64.182899  2.034584E-05 -129.411575  1.000000E+00    0.000000  1.000000E+00    0.000000
  0.061178500  5.049914E-01   62.546043  3.117708E-05 -122.803101  1.000000E+00    0.000000  1.000000E+00    0.000000
  0.061878250  4.992364E-01   60.771900  7.698334E-06 -128.711472  1.000000E+00    0.000000  1.000000E+00    0.000000
  0.062578000  4.925071E-01   59.125587  6.717946E-05  162.534653  1.000000E+00    0.000000  1.000000E+00    0.000000
  0.063277750  4.870650E-01   57.327553  6.547117E-05 -164.516998  1.000000E+00    0.000000  1.000000E+00    0.000000
  0.063977500  4.811882E-01   55.545063  4.418338E-05  146.999985  1.000000E+00    0.000000  1.000000E+00    0.000000
  0.064677250  4.758416E-01   53.749214  4.821767E-05  132.517929  1.000000E+00    0.000000  1.000000E+00    0.000000
  0.065377000  4.700295E-01   51.931293  6.104593E-05 -169.810394  1.000000E+00    0.000000  1.000000E+00    0.000000
  0.066076750  4.650982E-01   50.076557  5.703857E-05  170.386124  1.000000E+00    0.000000  1.000000E+00    0.000000
  0.066776500  4.603971E-01   48.294186  4.785415E-05 -159.052185  1.000000E+00    0.000000  1.000000E+00    0.000000
  0.067476250  4.547704E-01   46.451923  2.047577E-05  120.499550  1.000000E+00    0.000000  1.000000E+00    0.000000
  0.068176000  4.506207E-01   44.583813  6.782282E-05 -138.860703  1.000000E+00    0.000000  1.000000E+00    0.000000
  0.068875750  4.463587E-01   42.720715  8.857044E-05 -132.745972  1.000000E+00    0.000000  1.000000E+00    0.000000
  0.069575500  4.416136E-01   40.852051  2.149312E-05  174.539764  1.000000E+00    0.000000  1.000000E+00    0.000000
  0.070275250  4.377813E-01   38.917576  4.398573E-05  -93.550552  1.000000E+00    0.000000  1.000000E+00    0.000000
  0.070975000  4.333747E-01   37.040501  7.379697E-05 -173.814896  1.000000E+00    0.000000  1.000000E+00    0.000000
  0.071674750  4.302159E-01   35.131031  8.124526E-05  -88.353073  1.000000E+00    0.000000  1.000000E+00    0.000000
  0.072374500  4.271348E-01   33.182640  9.431951E-05 -127.936905  1.000000E+00    0.000000  1.000000E+00    0.000000
  0.073074250  4.233004E-01   31.217247  4.980706E-05 -137.363586  1.000000E+00    0.000000  1.000000E+00    0.000000
  0.073774000  4.207266E-01   29.298250  5.625739E-05 -101.983482  1.000000E+00    0.000000  1.000000E+00    0.000000
  0.074473750  4.182903E-01   27.362038  8.654780E-05 -135.628922  1.000000E+00    0.000000  1.000000E+00    0.000000
  0.075173500  4.153047E-01   25.441891  8.034718E-05 -132.302933  1.000000E+00    0.000000  1.000000E+00    0.000000
  0.075873250  4.131891E-01   23.485821  4.624971E-05 -150.038116  1.000000E+00    0.000000  1.000000E+00    0.000000
  0.076573000  4.112252E-01   21.585447  7.329892E-05 -121.863304  1.000000E+00    0.000000  1.000000E+00    0.000000
  0.077272750  4.095813E-01   19.706547  6.709425E-05 -149.013931  1.000000E+00    0.000000  1.000000E+00    0.000000
  0.077972500  4.078466E-01   17.696188  5.079278E-05 -113.848724  1.000000E+00    0.000000  1.000000E+00    0.000000
  0.078672250  4.061936E-01   15.784832  4.084249E-05  -98.691193  1.000000E+00    0.000000  1.000000E+00    0.000000
  0.079372000  4.049389E-01   13.905805  3.603015E-05 -128.685562  1.000000E+00    0.000000  1.000000E+00    0.000000
  0.080071750  4.038608E-01   12.005789  4.489380E-05 -100.310974  1.000000E+00    0.000000  1.000000E+00    0.000000
  0.080771500  4.027342E-01   10.102475  4.436986E-05 -112.839775  1.000000E+00    0.000000  1.000000E+00    0.000000
  0.081471250  4.021614E-01    8.168787  4.733396E-05 -131.732452  1.000000E+00    0.000000  1.000000E+00    0.000000
  0.082171000  4.011634E-01    6.350296  3.694401E-05 -131.985046  1.000000E+00    0.000000  1.000000E+00    0.000000
  0.082870750  4.007939E-01    4.482402  8.996711E-05  -91.171776  1.000000E+00    0.000000  1.000000E+00    0.000000
  0.083570500  4.004796E-01    2.550197  5.076631E-05 -141.876236  1.000000E+00    0.000000  1.000000E+00    0.000000
  0.084270250  4.003062E-01    0.737702  3.996912E-05  -96.488449  1.000000E+00    0.000000  1.000000E+00    0.000000
  0.084970000  4.005195E-01   -1.097478  4.043400E-05  -69.827003  1.000000E+00    0.000000  1.000000E+00    0.000000
  0.085669750  4.004157E-01   -2.936105  4.429038E-05  -47.173218  1.000000E+00    0.000000  1.000000E+00    0.000000
  0.086369500  4.008336E-01   -4.760239  4.954196E-05  -60.284813  1.000000E+00    0.000000  1.000000E+00    0.000000
  0.087069250  4.013201E-01   -6.563182  2.433723E-05  -72.592361  1.000000E+00    0.000000  1.000000E+00    0.000000
  0.087769000  4.021197E-01   -8.353919  4.768945E-05  -67.987541  1.000000E+00    0.000000  1.000000E+00    0.000000
  0.088468750  4.028852E-01  -10.128133  2.292500E-05  -62.041142  1.000000E+00    0.000000  1.000000E+00    0.000000
  0.089168500  4.040632E-01  -11.901678  3.929362E-05  -82.327103  1.000000E+00    0.000000  1.000000E+00    0.000000
  0.089868250  4.048657E-01  -13.609425  2.171137E-05 -107.453453  1.000000E+00    0.000000  1.000000E+00    0.000000
  0.090568000  4.063675E-01  -15.282249  1.208994E-05  -51.522430  1.000000E+00    0.000000  1.000000E+00    0.000000
  0.091267750  4.078186E-01  -17.019156  4.785422E-05  -54.862709  1.000000E+00    0.000000  1.000000E+00    0.000000
  0.091967500  4.093450E-01  -18.707783  3.289061E-05  -25.469952  1.000000E+00    0.000000  1.000000E+00    0.000000
  0.092667250  4.105734E-01  -20.308546  1.909528E-05  -69.656342  1.000000E+00    0.000000  1.000000E+00    0.000000
  0.093367000  4.126629E-01  -21.979002  2.194297E-05 -106.694267  1.000000E+00    0.000000  1.000000E+00    0.000000
  0.094066750  4.142602E-01  -23.571524  5.416240E-05  -66.674995  1.000000E+00    0.000000  1.000000E+00    0.000000
  0.094766500  4.165900E-01  -25.178965  3.530377E-05  -67.656021  1.000000E+00    0.000000  1.000000E+00    0.000000
  0.095466250  4.188133E-01  -26.770498  3.194782E-05  -24.698936  1.000000E+00    0.000000  1.000000E+00    0.000000
  0.096166000  4.211571E-01  -28.347969  5.968554E-05  -12.019216  1.000000E+00    0.000000  1.000000E+00    0.000000
  0.096865750  4.234648E-01  -29.791588  2.437688E-05  -86.374863  1.000000E+00    0.000000  1.000000E+00    0.000000
  0.097565500  4.261669E-01  -31.347082  2.605578E-05   40.855835  1.000000E+00    0.000000  1.000000E+00    0.000000
  0.098265250  4.283838E-01  -32.801746  2.352591E-05  -45.389027  1.000000E+00    0.000000  1.000000E+00    0.000000
  0.098965000  4.314283E-01  -34.244865  1.932027E-05  -38.011482  1.000000E+00    0.000000  1.000000E+00    0.000000
  0.099664750  4.337332E-01  -35.701267  3.706255E-05  -99.059532  1.000000E+00    0.000000  1.000000E+00    0.000000
  0.100364500  4.374786E-01  -37.032612  4.649859E-05  -33.973724  1.000000E+00    0.000000  1.000000E+00    0.000000
  0.101064250  4.406776E-01  -38.483681  4.301090E-05  -31.469957  1.000000E+00    0.000000  1.000000E+00    0.000000
  0.101764000  4.436839E-01  -39.799606  2.104893E-05   30.485352  1.000000E+00    0.000000  1.000000E+00    0.000000
  0.102463750  4.463336E-01  -41.160046  3.504568E-05   -6.917114  1.000000E+00    0.000000  1.000000E+00    0.000000
  0.103163500  4.491736E-01  -42.445129  2.355213E-05  -51.337379  1.000000E+00    0.000000  1.000000E+00    0.000000
  0.103863250  4.527167E-01  -43.746933  5.702293E-06  -35.604126  1.000000E+00    0.000000  1.000000E+00    0.000000
  0.104563000  4.551111E-01  -45.060890  5.998898E-05    9.261882  1.000000E+00    0.000000  1.000000E+00    0.000000
  0.105262750  4.588137E-01  -46.306099  3.916165E-05    7.301446  1.000000E+00    0.000000  1.000000E+00    0.000000
  0.105962500  4.616508E-01  -47.532951  1.442435E-05  -63.206432  1.000000E+00    0.000000  1.000000E+00    0.000000
  0.106662250  4.642673E-01  -48.715633  4.130879E-05    7.714617  1.000000E+00    0.000000  1.000000E+00    0.000000
  0.107362000  4.682375E-01  -49.944115  1.478211E-05   -7.939953  1.000000E+00    0.000000  1.000000E+00    0.000000
  0.108061750  4.711396E-01  -51.139877  5.127573E-05  -10.103273  1.000000E+00    0.000000  1.000000E+00    0.000000
  0.108761500  4.750610E-01  -52.253590  5.681712E-05    5.542400  1.000000E+00    0.000000  1.000000E+00    0.000000
  0.109461250  4.780299E-01  -53.448109  7.971095E-05    0.458817  1.000000E+00    0.000000  1.000000E+00    0.000000
