! Anritsu VNA Master:                           Model: MS2025B
! SN:                                  1642059
! /bd0/PROE/TP1/P2/RLCser.s2p
! Existing Calibration Information:
! TYPE:                         Current Settings,       Active Cal Settings
! TIME:             	   04/23/2024 08:46:29 AM,    03/12/2018 11:45:53 AM
! INTERNAL TEMP:    	                   43.0 C,                    40.8 C
! # POINTS:         	                     1715,                      4001
! START FREQ:       	                1.000 MHz,                 1.000 MHz
! STOP FREQ:        	        1.200 371 500 GHz,                 2.800 GHz
! SOURCE POWER:     	                  Default,                   Default
! IFBW:             	                    1 kHz,                     1 kHz
! AVG FACTOR:       	                       1 ,                        1 
! REF PLANE 1:      	                     0 mm,                      0 mm
! REF PLANE 2:      	                     0 mm,                      0 mm
! CAL TYPE:         	             1P2P S11,S21,              1P2P S11,S21
! CAL METHOD:       	                     SOLT,                      SOLT
! CAL LINE TYPE:    	                     Coax,                      Coax
! DUT PORT 1:       	                         ,                          
! DUT PORT 2:       	                N-Conn(M),                 N-Conn(M)
! CAL STATUS:       	        OK: Accuracy High,                        --
# GHZ S MA R 50.0
! FREQ.GHZ       S11M         S11A         S21M         S21A         S12M         S12A         S22M         S22A
  0.001000000  9.956191E-01   -0.757974  4.741083E-05  -81.454613  1.000000E+00    0.000000  1.000000E+00    0.000000
  0.001699750  9.917040E-01   -1.699096  2.684429E-05 -101.809349  1.000000E+00    0.000000  1.000000E+00    0.000000
  0.002399500  9.897121E-01   -2.527876  3.228278E-05  -69.226654  1.000000E+00    0.000000  1.000000E+00    0.000000
  0.003099250  9.871098E-01   -3.424695  3.898944E-05  -85.628273  1.000000E+00    0.000000  1.000000E+00    0.000000
  0.003799000  9.888858E-01   -4.341702  1.723386E-05  -44.373486  1.000000E+00    0.000000  1.000000E+00    0.000000
  0.004498750  9.854213E-01   -5.266726  6.241421E-05  -66.728546  1.000000E+00    0.000000  1.000000E+00    0.000000
  0.005198500  9.835798E-01   -6.097060  3.071335E-05  -32.755245  1.000000E+00    0.000000  1.000000E+00    0.000000
  0.005898250  9.834769E-01   -7.007766  5.045085E-05  -44.258369  1.000000E+00    0.000000  1.000000E+00    0.000000
  0.006598000  9.809018E-01   -7.898077  4.254136E-05  -18.315653  1.000000E+00    0.000000  1.000000E+00    0.000000
  0.007297750  9.776535E-01   -8.746564  2.142438E-05   90.384087  1.000000E+00    0.000000  1.000000E+00    0.000000
  0.007997500  9.736524E-01   -9.669072  2.583337E-05  -76.393120  1.000000E+00    0.000000  1.000000E+00    0.000000
  0.008697250  9.733185E-01  -10.668924  2.343135E-05   -7.105521  1.000000E+00    0.000000  1.000000E+00    0.000000
  0.009397000  9.707857E-01  -11.552853  3.842510E-05 -149.466278  1.000000E+00    0.000000  1.000000E+00    0.000000
  0.010096750  9.681554E-01  -12.514294  7.716204E-05  -51.858608  1.000000E+00    0.000000  1.000000E+00    0.000000
  0.010796500  9.645639E-01  -13.385244  6.373971E-05  -53.543854  1.000000E+00    0.000000  1.000000E+00    0.000000
  0.011496250  9.616136E-01  -14.363242  4.720556E-05  -59.761002  1.000000E+00    0.000000  1.000000E+00    0.000000
  0.012196000  9.568509E-01  -15.301727  7.428295E-05  -84.064400  1.000000E+00    0.000000  1.000000E+00    0.000000
  0.012895750  9.523937E-01  -16.254612  6.454979E-05   -3.348310  1.000000E+00    0.000000  1.000000E+00    0.000000
  0.013595500  9.477590E-01  -17.186018  7.006472E-05  -46.843403  1.000000E+00    0.000000  1.000000E+00    0.000000
  0.014295250  9.431699E-01  -18.123606  5.988244E-05    3.762092  1.000000E+00    0.000000  1.000000E+00    0.000000
  0.014995000  9.371827E-01  -19.054331  4.642228E-05  -30.810061  1.000000E+00    0.000000  1.000000E+00    0.000000
  0.015694750  9.313816E-01  -20.058455  4.033926E-05  -40.465908  1.000000E+00    0.000000  1.000000E+00    0.000000
  0.016394500  9.249210E-01  -21.053024  2.227044E-05  -90.526703  1.000000E+00    0.000000  1.000000E+00    0.000000
  0.017094250  9.188458E-01  -22.001499  4.681096E-05   -2.367403  1.000000E+00    0.000000  1.000000E+00    0.000000
  0.017794000  9.115065E-01  -23.036200  6.157009E-05   23.826626  1.000000E+00    0.000000  1.000000E+00    0.000000
  0.018493750  9.049166E-01  -24.066153  7.340094E-06   90.273560  1.000000E+00    0.000000  1.000000E+00    0.000000
  0.019193500  8.963887E-01  -25.020720  2.818927E-05   -9.472528  1.000000E+00    0.000000  1.000000E+00    0.000000
  0.019893250  8.881879E-01  -26.061600  1.857169E-05    3.294372  1.000000E+00    0.000000  1.000000E+00    0.000000
  0.020593000  8.808954E-01  -27.074766  3.781141E-05  -12.948052  1.000000E+00    0.000000  1.000000E+00    0.000000
  0.021292750  8.708547E-01  -28.130068  4.513371E-05   -3.078162  1.000000E+00    0.000000  1.000000E+00    0.000000
  0.021992500  8.614779E-01  -29.209272  2.231891E-06  -61.676765  1.000000E+00    0.000000  1.000000E+00    0.000000
  0.022692250  8.520448E-01  -30.238323  2.255934E-05   45.996952  1.000000E+00    0.000000  1.000000E+00    0.000000
  0.023392000  8.413587E-01  -31.310530  5.983854E-05   19.206694  1.000000E+00    0.000000  1.000000E+00    0.000000
  0.024091750  8.310245E-01  -32.461739  5.945903E-05   40.712021  1.000000E+00    0.000000  1.000000E+00    0.000000
  0.024791500  8.198873E-01  -33.511055  6.339554E-05    0.605461  1.000000E+00    0.000000  1.000000E+00    0.000000
  0.025491250  8.116712E-01  -34.448055  5.042853E-05   52.567341  1.000000E+00    0.000000  1.000000E+00    0.000000
  0.026191000  7.997963E-01  -35.610329  5.737905E-05   12.801084  1.000000E+00    0.000000  1.000000E+00    0.000000
  0.026890750  7.880458E-01  -36.748623  5.450652E-05   59.333267  1.000000E+00    0.000000  1.000000E+00    0.000000
  0.027590500  7.746615E-01  -37.875439  5.667844E-05   44.378464  1.000000E+00    0.000000  1.000000E+00    0.000000
  0.028290250  7.613690E-01  -39.125607  8.606927E-05   22.431938  1.000000E+00    0.000000  1.000000E+00    0.000000
  0.028990000  7.468520E-01  -40.304905  4.667731E-05   19.487751  1.000000E+00    0.000000  1.000000E+00    0.000000
  0.029689750  7.325315E-01  -41.487568  2.516781E-05   58.544968  1.000000E+00    0.000000  1.000000E+00    0.000000
  0.030389500  7.174145E-01  -42.690155  6.077564E-05   14.752732  1.000000E+00    0.000000  1.000000E+00    0.000000
  0.031089250  7.020189E-01  -43.903828  5.173983E-05   46.193356  1.000000E+00    0.000000  1.000000E+00    0.000000
  0.031789000  6.857244E-01  -45.106880  5.702603E-05   73.295731  1.000000E+00    0.000000  1.000000E+00    0.000000
  0.032488750  6.693004E-01  -46.270615  5.141538E-05   95.640877  1.000000E+00    0.000000  1.000000E+00    0.000000
  0.033188500  6.527101E-01  -47.532444  6.912669E-05   90.820717  1.000000E+00    0.000000  1.000000E+00    0.000000
  0.033888250  6.353644E-01  -48.692020  5.411324E-05   89.344650  1.000000E+00    0.000000  1.000000E+00    0.000000
  0.034588000  6.181290E-01  -49.985680  1.740505E-05   58.534374  1.000000E+00    0.000000  1.000000E+00    0.000000
  0.035287750  5.998755E-01  -51.195007  5.004848E-05   95.343330  1.000000E+00    0.000000  1.000000E+00    0.000000
  0.035987500  5.822569E-01  -52.396431  6.145579E-05   37.848049  1.000000E+00    0.000000  1.000000E+00    0.000000
  0.036687250  5.632567E-01  -53.678963  8.717510E-05   59.727894  1.000000E+00    0.000000  1.000000E+00    0.000000
  0.037387000  5.446585E-01  -54.913315  4.550550E-05   71.176010  1.000000E+00    0.000000  1.000000E+00    0.000000
  0.038086750  5.253477E-01  -56.143627  4.277377E-05  -15.239259  1.000000E+00    0.000000  1.000000E+00    0.000000
  0.038786500  5.059118E-01  -57.397781  5.814178E-05   73.046379  1.000000E+00    0.000000  1.000000E+00    0.000000
  0.039486250  4.860325E-01  -58.626602  6.468390E-05   54.671547  1.000000E+00    0.000000  1.000000E+00    0.000000
  0.040186000  4.658967E-01  -59.815704  3.559268E-05   81.031166  1.000000E+00    0.000000  1.000000E+00    0.000000
  0.040885750  4.458556E-01  -61.010590  4.978938E-05   87.484520  1.000000E+00    0.000000  1.000000E+00    0.000000
  0.041585500  4.250525E-01  -62.160343  4.240476E-05  129.681381  1.000000E+00    0.000000  1.000000E+00    0.000000
  0.042285250  4.041970E-01  -63.423286  1.042811E-04   75.385330  1.000000E+00    0.000000  1.000000E+00    0.000000
  0.042985000  3.835420E-01  -64.565536  2.386490E-05   61.892517  1.000000E+00    0.000000  1.000000E+00    0.000000
  0.043684750  3.624004E-01  -65.625206  7.436184E-05  115.492310  1.000000E+00    0.000000  1.000000E+00    0.000000
  0.044384500  3.407939E-01  -66.724251  5.671125E-05   70.877052  1.000000E+00    0.000000  1.000000E+00    0.000000
  0.045084250  3.197938E-01  -67.779312  4.579004E-05  114.835381  1.000000E+00    0.000000  1.000000E+00    0.000000
  0.045784000  2.983723E-01  -68.798096  7.262496E-05   93.487122  1.000000E+00    0.000000  1.000000E+00    0.000000
  0.046483750  2.767212E-01  -69.782646  5.823387E-05  102.876259  1.000000E+00    0.000000  1.000000E+00    0.000000
  0.047183500  2.553512E-01  -70.679855  5.533385E-05   71.759224  1.000000E+00    0.000000  1.000000E+00    0.000000
  0.047883250  2.336615E-01  -71.502556  6.434689E-05  128.342377  1.000000E+00    0.000000  1.000000E+00    0.000000
  0.048583000  2.121902E-01  -72.173065  6.739476E-05   75.386086  1.000000E+00    0.000000  1.000000E+00    0.000000
  0.049282750  1.909956E-01  -72.790878  7.069812E-05  108.114807  1.000000E+00    0.000000  1.000000E+00    0.000000
  0.049982500  1.712579E-01  -72.929482  5.665182E-05   57.088100  1.000000E+00    0.000000  1.000000E+00    0.000000
  0.050682250  1.498374E-01  -73.069130  7.907405E-05   97.410385  1.000000E+00    0.000000  1.000000E+00    0.000000
  0.051382000  1.280375E-01  -72.747864  4.149394E-05  142.731842  1.000000E+00    0.000000  1.000000E+00    0.000000
  0.052081750  1.071654E-01  -71.787735  3.845102E-05  107.385597  1.000000E+00    0.000000  1.000000E+00    0.000000
  0.052781500  8.591937E-02  -69.903923  3.903386E-05  146.378174  1.000000E+00    0.000000  1.000000E+00    0.000000
  0.053481250  6.641183E-02  -65.786606  1.011143E-04  113.079620  1.000000E+00    0.000000  1.000000E+00    0.000000
  0.054181000  4.708545E-02  -58.172577  7.752207E-05  141.296600  1.000000E+00    0.000000  1.000000E+00    0.000000
  0.054880750  3.125430E-02  -39.446613  3.475031E-05  165.153534  1.000000E+00    0.000000  1.000000E+00    0.000000
  0.055580500  2.413354E-02    1.313902  7.439421E-05  146.957825  1.000000E+00    0.000000  1.000000E+00    0.000000
  0.056280250  3.204710E-02   39.916775  7.750251E-05  171.830917  1.000000E+00    0.000000  1.000000E+00    0.000000
  0.056980000  4.793007E-02   56.465561  4.355840E-05 -177.776413  1.000000E+00    0.000000  1.000000E+00    0.000000
  0.057679750  6.587747E-02   63.985756  3.731827E-05 -165.264603  1.000000E+00    0.000000  1.000000E+00    0.000000
  0.058379500  8.378838E-02   67.351311  6.588753E-05 -139.332275  1.000000E+00    0.000000  1.000000E+00    0.000000
  0.059079250  1.018671E-01   69.430031  7.933065E-05 -172.586472  1.000000E+00    0.000000  1.000000E+00    0.000000
  0.059779000  1.194633E-01   70.449615  3.460270E-05 -111.609795  1.000000E+00    0.000000  1.000000E+00    0.000000
  0.060478750  1.378070E-01   71.072868  5.469478E-05 -159.615845  1.000000E+00    0.000000  1.000000E+00    0.000000
  0.061178500  1.549321E-01   71.117157  4.511630E-05  145.807877  1.000000E+00    0.000000  1.000000E+00    0.000000
  0.061878250  1.723975E-01   71.038750  7.675130E-05 -157.853668  1.000000E+00    0.000000  1.000000E+00    0.000000
  0.062578000  1.893195E-01   70.851768  4.246264E-05 -161.024811  1.000000E+00    0.000000  1.000000E+00    0.000000
  0.063277750  2.060719E-01   70.534271  8.210286E-05 -145.257278  1.000000E+00    0.000000  1.000000E+00    0.000000
  0.063977500  2.224459E-01   70.187782  4.971512E-05 -174.389984  1.000000E+00    0.000000  1.000000E+00    0.000000
  0.064677250  2.382853E-01   69.673576  8.099202E-05 -134.463348  1.000000E+00    0.000000  1.000000E+00    0.000000
  0.065377000  2.540531E-01   69.100304  5.281177E-05  172.224426  1.000000E+00    0.000000  1.000000E+00    0.000000
  0.066076750  2.693212E-01   68.572548  6.218730E-05 -141.078369  1.000000E+00    0.000000  1.000000E+00    0.000000
  0.066776500  2.845704E-01   67.862244  1.115801E-04 -144.877487  1.000000E+00    0.000000  1.000000E+00    0.000000
  0.067476250  2.993004E-01   67.233131  9.488573E-05 -165.743423  1.000000E+00    0.000000  1.000000E+00    0.000000
  0.068176000  3.134816E-01   66.579201  5.694638E-05  142.135590  1.000000E+00    0.000000  1.000000E+00    0.000000
  0.068875750  3.273686E-01   65.861755  1.021668E-04 -152.516052  1.000000E+00    0.000000  1.000000E+00    0.000000
  0.069575500  3.408087E-01   65.299393  7.153336E-05 -147.986496  1.000000E+00    0.000000  1.000000E+00    0.000000
  0.070275250  3.545701E-01   64.588829  8.510113E-05 -151.626205  1.000000E+00    0.000000  1.000000E+00    0.000000
  0.070975000  3.674194E-01   63.880238  8.487401E-05 -134.551529  1.000000E+00    0.000000  1.000000E+00    0.000000
  0.071674750  3.808141E-01   63.181553  8.129085E-05 -162.431061  1.000000E+00    0.000000  1.000000E+00    0.000000
  0.072374500  3.930643E-01   62.497684  3.194110E-05 -150.139832  1.000000E+00    0.000000  1.000000E+00    0.000000
  0.073074250  4.054769E-01   61.879883  6.772119E-05 -129.734634  1.000000E+00    0.000000  1.000000E+00    0.000000
  0.073774000  4.172492E-01   61.154919  7.699335E-05 -148.848648  1.000000E+00    0.000000  1.000000E+00    0.000000
  0.074473750  4.290120E-01   60.540440  3.404028E-05  -97.669159  1.000000E+00    0.000000  1.000000E+00    0.000000
  0.075173500  4.402391E-01   59.867447  6.388972E-05 -141.948929  1.000000E+00    0.000000  1.000000E+00    0.000000
  0.075873250  4.514711E-01   59.251194  7.628935E-05 -129.152328  1.000000E+00    0.000000  1.000000E+00    0.000000
  0.076573000  4.628088E-01   58.565601  7.138796E-05 -148.697098  1.000000E+00    0.000000  1.000000E+00    0.000000
  0.077272750  4.728913E-01   57.931568  8.805034E-05 -104.319641  1.000000E+00    0.000000  1.000000E+00    0.000000
  0.077972500  4.838070E-01   57.343906  1.726595E-05 -108.189095  1.000000E+00    0.000000  1.000000E+00    0.000000
  0.078672250  4.934812E-01   56.779762  6.869670E-05 -128.707062  1.000000E+00    0.000000  1.000000E+00    0.000000
  0.079372000  5.040467E-01   56.159359  5.208649E-05 -114.183174  1.000000E+00    0.000000  1.000000E+00    0.000000
  0.080071750  5.136569E-01   55.542145  6.245275E-05 -120.736710  1.000000E+00    0.000000  1.000000E+00    0.000000
  0.080771500  5.229649E-01   55.004055  3.220755E-05 -125.563576  1.000000E+00    0.000000  1.000000E+00    0.000000
  0.081471250  5.319623E-01   54.392246  4.915633E-05  -89.934448  1.000000E+00    0.000000  1.000000E+00    0.000000
  0.082171000  5.407560E-01   53.822132  3.597101E-05 -131.162079  1.000000E+00    0.000000  1.000000E+00    0.000000
  0.082870750  5.500884E-01   53.337749  2.469820E-05  -81.561295  1.000000E+00    0.000000  1.000000E+00    0.000000
  0.083570500  5.580348E-01   52.760204  6.130639E-05 -124.295540  1.000000E+00    0.000000  1.000000E+00    0.000000
  0.084270250  5.665426E-01   52.310116  4.876105E-05  -65.004677  1.000000E+00    0.000000  1.000000E+00    0.000000
  0.084970000  5.749952E-01   51.723862  3.316916E-05  -49.940506  1.000000E+00    0.000000  1.000000E+00    0.000000
  0.085669750  5.826907E-01   51.236103  5.210869E-05  -74.346756  1.000000E+00    0.000000  1.000000E+00    0.000000
  0.086369500  5.904988E-01   50.771641  6.616915E-05  -92.954414  1.000000E+00    0.000000  1.000000E+00    0.000000
  0.087069250  5.978979E-01   50.279690  2.514678E-05  -70.570457  1.000000E+00    0.000000  1.000000E+00    0.000000
  0.087769000  6.053851E-01   49.791386  2.931863E-05 -115.897324  1.000000E+00    0.000000  1.000000E+00    0.000000
  0.088468750  6.119720E-01   49.305309  3.631879E-05  -95.453415  1.000000E+00    0.000000  1.000000E+00    0.000000
  0.089168500  6.193328E-01   48.872627  1.617230E-05  -79.135162  1.000000E+00    0.000000  1.000000E+00    0.000000
  0.089868250  6.262461E-01   48.419346  5.954582E-05  -88.245590  1.000000E+00    0.000000  1.000000E+00    0.000000
  0.090568000  6.324661E-01   47.967129  2.227690E-05  -86.234276  1.000000E+00    0.000000  1.000000E+00    0.000000
  0.091267750  6.393040E-01   47.564461  5.077169E-05  -59.642235  1.000000E+00    0.000000  1.000000E+00    0.000000
  0.091967500  6.456081E-01   47.118038  4.880306E-05  -94.764755  1.000000E+00    0.000000  1.000000E+00    0.000000
  0.092667250  6.519839E-01   46.713825  3.383330E-05 -106.026711  1.000000E+00    0.000000  1.000000E+00    0.000000
  0.093367000  6.577459E-01   46.299286  2.263203E-05  -42.159695  1.000000E+00    0.000000  1.000000E+00    0.000000
  0.094066750  6.634188E-01   45.888405  3.823544E-05  -83.244804  1.000000E+00    0.000000  1.000000E+00    0.000000
  0.094766500  6.697680E-01   45.463963  3.823845E-05  -65.266167  1.000000E+00    0.000000  1.000000E+00    0.000000
  0.095466250  6.752512E-01   45.098640  2.611694E-05  -75.544273  1.000000E+00    0.000000  1.000000E+00    0.000000
  0.096166000  6.805698E-01   44.668831  3.655880E-05  -33.560059  1.000000E+00    0.000000  1.000000E+00    0.000000
  0.096865750  6.854787E-01   44.309593  3.214547E-05  -39.633568  1.000000E+00    0.000000  1.000000E+00    0.000000
  0.097565500  6.904965E-01   43.932304  4.640283E-05  -24.840725  1.000000E+00    0.000000  1.000000E+00    0.000000
  0.098265250  6.956388E-01   43.576225  2.922004E-05  -71.649147  1.000000E+00    0.000000  1.000000E+00    0.000000
  0.098965000  7.002882E-01   43.204681  3.330942E-05  -47.916973  1.000000E+00    0.000000  1.000000E+00    0.000000
  0.099664750  7.047929E-01   42.860703  4.162139E-05  -16.242155  1.000000E+00    0.000000  1.000000E+00    0.000000
  0.100364500  7.117071E-01   42.571743  3.994575E-05  -20.767302  1.000000E+00    0.000000  1.000000E+00    0.000000
  0.101064250  7.163694E-01   42.245785  1.003899E-05  -39.222889  1.000000E+00    0.000000  1.000000E+00    0.000000
  0.101764000  7.201350E-01   41.945705  4.165613E-05    9.682775  1.000000E+00    0.000000  1.000000E+00    0.000000
  0.102463750  7.240644E-01   41.580921  1.042360E-05  -28.639822  1.000000E+00    0.000000  1.000000E+00    0.000000
  0.103163500  7.278055E-01   41.285347  3.476940E-05   10.991280  1.000000E+00    0.000000  1.000000E+00    0.000000
  0.103863250  7.323595E-01   40.980404  2.873305E-05    6.980054  1.000000E+00    0.000000  1.000000E+00    0.000000
  0.104563000  7.357768E-01   40.626820  2.889373E-05  -68.933052  1.000000E+00    0.000000  1.000000E+00    0.000000
  0.105262750  7.400180E-01   40.375153  4.406707E-05    6.596971  1.000000E+00    0.000000  1.000000E+00    0.000000
  0.105962500  7.435100E-01   40.037231  3.152894E-05   10.064034  1.000000E+00    0.000000  1.000000E+00    0.000000
  0.106662250  7.475042E-01   39.697647  1.243268E-05  -27.024323  1.000000E+00    0.000000  1.000000E+00    0.000000
  0.107362000  7.504798E-01   39.453129  2.310533E-05   -8.709529  1.000000E+00    0.000000  1.000000E+00    0.000000
  0.108061750  7.537339E-01   39.145489  3.734178E-05   36.154068  1.000000E+00    0.000000  1.000000E+00    0.000000
  0.108761500  7.566957E-01   38.877239  4.234680E-05   21.639154  1.000000E+00    0.000000  1.000000E+00    0.000000
  0.109461250  7.601915E-01   38.552765  3.663351E-05  -11.596758  1.000000E+00    0.000000  1.000000E+00    0.000000
