! Anritsu VNA Master:                           Model: MS2025B
! SN:                                  1642059
! /bd0/PROE/TP1/P2/StubSC.s2p
! Existing Calibration Information:
! TYPE:                         Current Settings,       Active Cal Settings
! TIME:             	   04/23/2024 09:37:19 AM,    03/12/2018 12:18:37 PM
! INTERNAL TEMP:    	                   44.0 C,                    41.3 C
! # POINTS:         	                     2143,                      4001
! START FREQ:       	                1.000 MHz,                 1.000 MHz
! STOP FREQ:        	        1.499 864 500 GHz,                 2.800 GHz
! SOURCE POWER:     	                  Default,                   Default
! IFBW:             	                    1 kHz,                     1 kHz
! AVG FACTOR:       	                       1 ,                        1 
! REF PLANE 1:      	                     0 mm,                      0 mm
! REF PLANE 2:      	                     0 mm,                      0 mm
! CAL TYPE:         	             1P2P S11,S21,              1P2P S11,S21
! CAL METHOD:       	                     SOLT,                      SOLT
! CAL LINE TYPE:    	                     Coax,                      Coax
! DUT PORT 1:       	                         ,                          
! DUT PORT 2:       	                N-Conn(M),                 N-Conn(M)
! CAL STATUS:       	        OK: Accuracy High,                        --
# GHZ S MA R 50.0
! FREQ.GHZ       S11M         S11A         S21M         S21A         S12M         S12A         S22M         S22A
  0.001000000  9.963152E-01  179.966522  5.073814E-05  -58.179482  1.000000E+00    0.000000  1.000000E+00    0.000000
  0.001699750  9.959877E-01  179.722473  2.624607E-05 -108.012688  1.000000E+00    0.000000  1.000000E+00    0.000000
  0.002399500  9.956825E-01  179.544571  6.536922E-05   -5.533451  1.000000E+00    0.000000  1.000000E+00    0.000000
  0.003099250  9.949777E-01  179.261322  5.069301E-05  -70.844444  1.000000E+00    0.000000  1.000000E+00    0.000000
  0.003799000  9.962096E-01  179.108383  7.120206E-05  -81.635719  1.000000E+00    0.000000  1.000000E+00    0.000000
  0.004498750  9.945289E-01  178.913345  5.441652E-05  -20.395533  1.000000E+00    0.000000  1.000000E+00    0.000000
  0.005198500  9.939789E-01  178.749054  5.420555E-05  -61.979603  1.000000E+00    0.000000  1.000000E+00    0.000000
  0.005898250  9.956072E-01  178.535553  4.784305E-05  -25.445791  1.000000E+00    0.000000  1.000000E+00    0.000000
  0.006598000  9.943435E-01  178.357529  4.431828E-05  -40.749165  1.000000E+00    0.000000  1.000000E+00    0.000000
  0.007297750  9.943684E-01  178.117996  3.451143E-05  -59.195999  1.000000E+00    0.000000  1.000000E+00    0.000000
  0.007997500  9.930278E-01  177.960892  7.681045E-05  -43.094322  1.000000E+00    0.000000  1.000000E+00    0.000000
  0.008697250  9.945382E-01  177.810287  2.645159E-05  -91.696121  1.000000E+00    0.000000  1.000000E+00    0.000000
  0.009397000  9.942075E-01  177.554428  5.538255E-05    5.510557  1.000000E+00    0.000000  1.000000E+00    0.000000
  0.010096750  9.956850E-01  177.458893  6.393915E-05  -17.733475  1.000000E+00    0.000000  1.000000E+00    0.000000
  0.010796500  9.943536E-01  177.239838  5.310614E-05  -79.479477  1.000000E+00    0.000000  1.000000E+00    0.000000
  0.011496250  9.952164E-01  177.030334  7.177965E-05  -11.723068  1.000000E+00    0.000000  1.000000E+00    0.000000
  0.012196000  9.950317E-01  176.932449  5.051732E-05  -36.787308  1.000000E+00    0.000000  1.000000E+00    0.000000
  0.012895750  9.949036E-01  176.691147  2.271201E-05  -58.398430  1.000000E+00    0.000000  1.000000E+00    0.000000
  0.013595500  9.943068E-01  176.487534  5.250060E-05  -21.719231  1.000000E+00    0.000000  1.000000E+00    0.000000
  0.014295250  9.948363E-01  176.306519  8.303113E-05   -5.481767  1.000000E+00    0.000000  1.000000E+00    0.000000
  0.014995000  9.932441E-01  176.107666  2.810290E-05   -4.377820  1.000000E+00    0.000000  1.000000E+00    0.000000
  0.015694750  9.942129E-01  175.954803  6.954954E-05  -19.693506  1.000000E+00    0.000000  1.000000E+00    0.000000
  0.016394500  9.949619E-01  175.777344  4.550041E-05  -32.972828  1.000000E+00    0.000000  1.000000E+00    0.000000
  0.017094250  9.937428E-01  175.583466  7.782715E-05   19.784502  1.000000E+00    0.000000  1.000000E+00    0.000000
  0.017794000  9.936299E-01  175.439484  6.200588E-05  -18.226168  1.000000E+00    0.000000  1.000000E+00    0.000000
  0.018493750  9.934881E-01  175.197418  6.524450E-05  -27.523907  1.000000E+00    0.000000  1.000000E+00    0.000000
  0.019193500  9.937997E-01  175.028473  2.398081E-05  -89.335922  1.000000E+00    0.000000  1.000000E+00    0.000000
  0.019893250  9.935136E-01  174.863586  4.913693E-05   -3.100552  1.000000E+00    0.000000  1.000000E+00    0.000000
  0.020593000  9.930269E-01  174.689804  5.025202E-05   38.162182  1.000000E+00    0.000000  1.000000E+00    0.000000
  0.021292750  9.925277E-01  174.573227  2.816737E-05   24.974989  1.000000E+00    0.000000  1.000000E+00    0.000000
  0.021992500  9.922422E-01  174.376617  3.819110E-05  -28.219183  1.000000E+00    0.000000  1.000000E+00    0.000000
  0.022692250  9.926998E-01  174.130234  2.381380E-05  -10.976920  1.000000E+00    0.000000  1.000000E+00    0.000000
  0.023392000  9.915367E-01  173.974655  2.805286E-05  -18.624435  1.000000E+00    0.000000  1.000000E+00    0.000000
  0.024091750  9.921132E-01  173.819672  4.514840E-05   25.925537  1.000000E+00    0.000000  1.000000E+00    0.000000
  0.024791500  9.909092E-01  173.687881  4.109172E-05   -6.950987  1.000000E+00    0.000000  1.000000E+00    0.000000
  0.025491250  9.923890E-01  173.554428  3.216366E-05  -10.325323  1.000000E+00    0.000000  1.000000E+00    0.000000
  0.026191000  9.914936E-01  173.415207  1.009877E-04   18.461197  1.000000E+00    0.000000  1.000000E+00    0.000000
  0.026890750  9.913119E-01  173.216370  5.501858E-05   63.965649  1.000000E+00    0.000000  1.000000E+00    0.000000
  0.027590500  9.908078E-01  173.059311  3.307450E-05   91.275978  1.000000E+00    0.000000  1.000000E+00    0.000000
  0.028290250  9.906914E-01  172.823807  6.748419E-05    3.302890  1.000000E+00    0.000000  1.000000E+00    0.000000
  0.028990000  9.894772E-01  172.640594  4.454941E-05   38.572735  1.000000E+00    0.000000  1.000000E+00    0.000000
  0.029689750  9.887802E-01  172.420486  1.687210E-05   14.449576  1.000000E+00    0.000000  1.000000E+00    0.000000
  0.030389500  9.882866E-01  172.318069  4.974522E-05    1.874357  1.000000E+00    0.000000  1.000000E+00    0.000000
  0.031089250  9.872321E-01  172.124649  2.616549E-05    2.009572  1.000000E+00    0.000000  1.000000E+00    0.000000
  0.031789000  9.863703E-01  171.930145  5.027037E-05   66.601830  1.000000E+00    0.000000  1.000000E+00    0.000000
  0.032488750  9.858274E-01  171.768433  4.718855E-05   42.133617  1.000000E+00    0.000000  1.000000E+00    0.000000
  0.033188500  9.847879E-01  171.585526  3.908268E-05   87.520737  1.000000E+00    0.000000  1.000000E+00    0.000000
  0.033888250  9.845729E-01  171.428574  6.205558E-05   98.738731  1.000000E+00    0.000000  1.000000E+00    0.000000
  0.034588000  9.838219E-01  171.240173  2.318475E-05   23.614449  1.000000E+00    0.000000  1.000000E+00    0.000000
  0.035287750  9.830056E-01  171.063141  2.956183E-05   53.669193  1.000000E+00    0.000000  1.000000E+00    0.000000
  0.035987500  9.828233E-01  170.899551  4.048387E-05   91.315315  1.000000E+00    0.000000  1.000000E+00    0.000000
  0.036687250  9.818441E-01  170.766861  5.958829E-05   67.340729  1.000000E+00    0.000000  1.000000E+00    0.000000
  0.037387000  9.811593E-01  170.585541  2.997343E-05   33.573746  1.000000E+00    0.000000  1.000000E+00    0.000000
  0.038086750  9.805108E-01  170.411301  5.256692E-05   58.691475  1.000000E+00    0.000000  1.000000E+00    0.000000
  0.038786500  9.798328E-01  170.238907  3.670748E-05   95.965385  1.000000E+00    0.000000  1.000000E+00    0.000000
  0.039486250  9.790057E-01  170.087204  2.292706E-05   22.786566  1.000000E+00    0.000000  1.000000E+00    0.000000
  0.040186000  9.785076E-01  169.909744  3.929496E-05   86.566010  1.000000E+00    0.000000  1.000000E+00    0.000000
  0.040885750  9.777728E-01  169.750259  4.879621E-05   23.201567  1.000000E+00    0.000000  1.000000E+00    0.000000
  0.041585500  9.770039E-01  169.569107  2.333534E-05  101.178741  1.000000E+00    0.000000  1.000000E+00    0.000000
  0.042285250  9.762545E-01  169.424271  2.610857E-05   50.236412  1.000000E+00    0.000000  1.000000E+00    0.000000
  0.042985000  9.754568E-01  169.252518  7.624195E-05   37.719936  1.000000E+00    0.000000  1.000000E+00    0.000000
  0.043684750  9.749134E-01  169.077713  5.594876E-05  123.726021  1.000000E+00    0.000000  1.000000E+00    0.000000
  0.044384500  9.740189E-01  168.912949  1.781877E-05   92.418472  1.000000E+00    0.000000  1.000000E+00    0.000000
  0.045084250  9.733621E-01  168.746613  2.007498E-05   68.013725  1.000000E+00    0.000000  1.000000E+00    0.000000
  0.045784000  9.726835E-01  168.568573  3.452547E-05  153.437836  1.000000E+00    0.000000  1.000000E+00    0.000000
  0.046483750  9.716417E-01  168.412567  6.164404E-05  123.720284  1.000000E+00    0.000000  1.000000E+00    0.000000
  0.047183500  9.708269E-01  168.220886  3.929373E-05  121.888306  1.000000E+00    0.000000  1.000000E+00    0.000000
  0.047883250  9.700751E-01  168.065323  4.347280E-05  128.057831  1.000000E+00    0.000000  1.000000E+00    0.000000
  0.048583000  9.692611E-01  167.898254  3.813121E-05   91.325867  1.000000E+00    0.000000  1.000000E+00    0.000000
  0.049282750  9.682470E-01  167.705994  3.338500E-05  109.082802  1.000000E+00    0.000000  1.000000E+00    0.000000
  0.049982500  9.709321E-01  167.562561  6.326279E-05   83.470261  1.000000E+00    0.000000  1.000000E+00    0.000000
  0.050682250  9.701318E-01  167.445618  6.235748E-05  127.355804  1.000000E+00    0.000000  1.000000E+00    0.000000
  0.051382000  9.690119E-01  167.260101  5.017731E-05  130.370300  1.000000E+00    0.000000  1.000000E+00    0.000000
  0.052081750  9.685429E-01  167.110336  5.025463E-05  144.556427  1.000000E+00    0.000000  1.000000E+00    0.000000
  0.052781500  9.672523E-01  166.904312  4.928853E-05  176.995819  1.000000E+00    0.000000  1.000000E+00    0.000000
  0.053481250  9.661369E-01  166.730194  9.400087E-05  171.804581  1.000000E+00    0.000000  1.000000E+00    0.000000
  0.054181000  9.659794E-01  166.571518  4.130288E-05  151.586823  1.000000E+00    0.000000  1.000000E+00    0.000000
  0.054880750  9.649733E-01  166.404449  5.641202E-05  146.241623  1.000000E+00    0.000000  1.000000E+00    0.000000
  0.055580500  9.638171E-01  166.232727  3.786193E-05  177.899918  1.000000E+00    0.000000  1.000000E+00    0.000000
  0.056280250  9.637018E-01  166.058426  5.134764E-05 -142.430725  1.000000E+00    0.000000  1.000000E+00    0.000000
  0.056980000  9.631310E-01  165.886887  3.233854E-05 -172.840439  1.000000E+00    0.000000  1.000000E+00    0.000000
  0.057679750  9.619964E-01  165.706833  6.525093E-05  170.446671  1.000000E+00    0.000000  1.000000E+00    0.000000
  0.058379500  9.605004E-01  165.596283  4.173712E-05 -176.881042  1.000000E+00    0.000000  1.000000E+00    0.000000
  0.059079250  9.598790E-01  165.394150  3.376164E-05 -171.500015  1.000000E+00    0.000000  1.000000E+00    0.000000
  0.059779000  9.590665E-01  165.214050  3.985986E-05  173.267548  1.000000E+00    0.000000  1.000000E+00    0.000000
  0.060478750  9.577069E-01  165.029892  3.990939E-05  177.988693  1.000000E+00    0.000000  1.000000E+00    0.000000
  0.061178500  9.569169E-01  164.905029  7.189193E-05 -165.947937  1.000000E+00    0.000000  1.000000E+00    0.000000
  0.061878250  9.557393E-01  164.747467  6.377004E-05 -145.681488  1.000000E+00    0.000000  1.000000E+00    0.000000
  0.062578000  9.550394E-01  164.625732  6.195980E-05  162.818588  1.000000E+00    0.000000  1.000000E+00    0.000000
  0.063277750  9.540240E-01  164.463272  4.044145E-05 -145.709274  1.000000E+00    0.000000  1.000000E+00    0.000000
  0.063977500  9.522856E-01  164.241302  4.255301E-05  121.094101  1.000000E+00    0.000000  1.000000E+00    0.000000
  0.064677250  9.517899E-01  164.105804  3.965128E-05 -129.149536  1.000000E+00    0.000000  1.000000E+00    0.000000
  0.065377000  9.503261E-01  163.922729  2.129900E-05 -167.303604  1.000000E+00    0.000000  1.000000E+00    0.000000
  0.066076750  9.496594E-01  163.756195  4.758257E-05 -160.392395  1.000000E+00    0.000000  1.000000E+00    0.000000
  0.066776500  9.478968E-01  163.592789  4.336369E-05 -137.351044  1.000000E+00    0.000000  1.000000E+00    0.000000
  0.067476250  9.472539E-01  163.437134  9.990376E-05 -143.489182  1.000000E+00    0.000000  1.000000E+00    0.000000
  0.068176000  9.460557E-01  163.268326  7.856637E-05 -149.525757  1.000000E+00    0.000000  1.000000E+00    0.000000
  0.068875750  9.450886E-01  163.129288  7.030510E-05 -133.472549  1.000000E+00    0.000000  1.000000E+00    0.000000
  0.069575500  9.436626E-01  162.983383  5.485134E-05 -142.132111  1.000000E+00    0.000000  1.000000E+00    0.000000
  0.070275250  9.427302E-01  162.819595  6.861913E-05 -145.240326  1.000000E+00    0.000000  1.000000E+00    0.000000
  0.070975000  9.414983E-01  162.617172  7.781075E-05 -164.356537  1.000000E+00    0.000000  1.000000E+00    0.000000
  0.071674750  9.410942E-01  162.427368  4.332291E-05 -164.588974  1.000000E+00    0.000000  1.000000E+00    0.000000
  0.072374500  9.393771E-01  162.259644  4.674379E-05 -121.928864  1.000000E+00    0.000000  1.000000E+00    0.000000
  0.073074250  9.385369E-01  162.076691  3.205714E-05  -79.226563  1.000000E+00    0.000000  1.000000E+00    0.000000
  0.073774000  9.371435E-01  161.913467  3.441219E-05 -159.426224  1.000000E+00    0.000000  1.000000E+00    0.000000
  0.074473750  9.364727E-01  161.744476  8.617927E-05 -134.991684  1.000000E+00    0.000000  1.000000E+00    0.000000
  0.075173500  9.350477E-01  161.598190  5.920584E-05 -104.165733  1.000000E+00    0.000000  1.000000E+00    0.000000
  0.075873250  9.337101E-01  161.419464  8.002424E-05 -116.636940  1.000000E+00    0.000000  1.000000E+00    0.000000
  0.076573000  9.331475E-01  161.271683  4.435344E-05 -129.805099  1.000000E+00    0.000000  1.000000E+00    0.000000
  0.077272750  9.310824E-01  161.104675  7.260605E-05 -103.272751  1.000000E+00    0.000000  1.000000E+00    0.000000
  0.077972500  9.302968E-01  160.907349  1.001947E-04 -111.327667  1.000000E+00    0.000000  1.000000E+00    0.000000
  0.078672250  9.296331E-01  160.763016  8.497486E-05  -99.995735  1.000000E+00    0.000000  1.000000E+00    0.000000
  0.079372000  9.284181E-01  160.592758  5.640466E-05 -112.565514  1.000000E+00    0.000000  1.000000E+00    0.000000
  0.080071750  9.270929E-01  160.416443  4.808181E-05  -96.490837  1.000000E+00    0.000000  1.000000E+00    0.000000
  0.080771500  9.267715E-01  160.252533  5.033049E-05  -70.125870  1.000000E+00    0.000000  1.000000E+00    0.000000
  0.081471250  9.254693E-01  160.078583  8.107372E-05  -81.673927  1.000000E+00    0.000000  1.000000E+00    0.000000
  0.082171000  9.237394E-01  159.849991  9.091190E-05  -98.728561  1.000000E+00    0.000000  1.000000E+00    0.000000
  0.082870750  9.225442E-01  159.726517  6.137532E-05  -70.777855  1.000000E+00    0.000000  1.000000E+00    0.000000
  0.083570500  9.212103E-01  159.528061  2.848562E-05 -121.287941  1.000000E+00    0.000000  1.000000E+00    0.000000
  0.084270250  9.208399E-01  159.332367  4.067183E-05 -102.131119  1.000000E+00    0.000000  1.000000E+00    0.000000
  0.084970000  9.190993E-01  159.161819  3.357177E-05  -68.961693  1.000000E+00    0.000000  1.000000E+00    0.000000
  0.085669750  9.186185E-01  159.009186  7.946049E-05  -86.969826  1.000000E+00    0.000000  1.000000E+00    0.000000
  0.086369500  9.169802E-01  158.848358  7.669190E-05 -110.831863  1.000000E+00    0.000000  1.000000E+00    0.000000
  0.087069250  9.161366E-01  158.646286  3.877795E-05  -18.550451  1.000000E+00    0.000000  1.000000E+00    0.000000
  0.087769000  9.147083E-01  158.481262  3.257745E-05 -142.133087  1.000000E+00    0.000000  1.000000E+00    0.000000
  0.088468750  9.138012E-01  158.336899  5.553422E-05  -84.352844  1.000000E+00    0.000000  1.000000E+00    0.000000
  0.089168500  9.125799E-01  158.133240  7.444021E-05  -33.350964  1.000000E+00    0.000000  1.000000E+00    0.000000
  0.089868250  9.111110E-01  157.998581  5.568625E-05  -89.334518  1.000000E+00    0.000000  1.000000E+00    0.000000
  0.090568000  9.101455E-01  157.827682  4.989534E-05  -64.367485  1.000000E+00    0.000000  1.000000E+00    0.000000
  0.091267750  9.096244E-01  157.672729  7.171951E-05  -43.158287  1.000000E+00    0.000000  1.000000E+00    0.000000
  0.091967500  9.077235E-01  157.503601  1.977256E-05  -86.365852  1.000000E+00    0.000000  1.000000E+00    0.000000
  0.092667250  9.065951E-01  157.337296  4.216782E-05  -24.761417  1.000000E+00    0.000000  1.000000E+00    0.000000
  0.093367000  9.063178E-01  157.102814  3.637601E-05  -64.491402  1.000000E+00    0.000000  1.000000E+00    0.000000
  0.094066750  9.051579E-01  157.002228  4.323426E-05  -50.300785  1.000000E+00    0.000000  1.000000E+00    0.000000
  0.094766500  9.033435E-01  156.813858  2.327769E-05  -61.047115  1.000000E+00    0.000000  1.000000E+00    0.000000
  0.095466250  9.028059E-01  156.627609  4.718077E-05  -56.396561  1.000000E+00    0.000000  1.000000E+00    0.000000
  0.096166000  9.017775E-01  156.483566  4.726114E-05  -27.721138  1.000000E+00    0.000000  1.000000E+00    0.000000
  0.096865750  9.006202E-01  156.309464  5.348600E-05  -16.561855  1.000000E+00    0.000000  1.000000E+00    0.000000
  0.097565500  8.997796E-01  156.152863  2.091354E-05  -46.325375  1.000000E+00    0.000000  1.000000E+00    0.000000
  0.098265250  8.986276E-01  155.978348  5.072412E-05  -32.514267  1.000000E+00    0.000000  1.000000E+00    0.000000
  0.098965000  8.978492E-01  155.876038  1.527732E-05 -178.166748  1.000000E+00    0.000000  1.000000E+00    0.000000
  0.099664750  8.965374E-01  155.725464  3.598178E-05   -7.425845  1.000000E+00    0.000000  1.000000E+00    0.000000
  0.100364500  8.960475E-01  155.574661  3.490529E-05   -3.761342  1.000000E+00    0.000000  1.000000E+00    0.000000
  0.101064250  8.949829E-01  155.415573  4.129523E-05  -22.244179  1.000000E+00    0.000000  1.000000E+00    0.000000
  0.101764000  8.929926E-01  155.272690  2.736803E-05  -52.137592  1.000000E+00    0.000000  1.000000E+00    0.000000
  0.102463750  8.926545E-01  155.093307  4.070342E-05   26.591930  1.000000E+00    0.000000  1.000000E+00    0.000000
  0.103163500  8.915506E-01  154.991592  4.304640E-05    5.179944  1.000000E+00    0.000000  1.000000E+00    0.000000
  0.103863250  8.910382E-01  154.842133  8.854528E-06  -51.585144  1.000000E+00    0.000000  1.000000E+00    0.000000
  0.104563000  8.885255E-01  154.705521  3.045993E-05 -100.611641  1.000000E+00    0.000000  1.000000E+00    0.000000
  0.105262750  8.883291E-01  154.492538  2.244709E-05   -1.010072  1.000000E+00    0.000000  1.000000E+00    0.000000
  0.105962500  8.867419E-01  154.366714  4.176752E-05  -29.365158  1.000000E+00    0.000000  1.000000E+00    0.000000
  0.106662250  8.851862E-01  154.260498  2.684498E-05   59.537788  1.000000E+00    0.000000  1.000000E+00    0.000000
  0.107362000  8.841768E-01  154.102814  3.844624E-05  -12.833796  1.000000E+00    0.000000  1.000000E+00    0.000000
  0.108061750  8.831854E-01  153.942673  3.071604E-05  -21.284910  1.000000E+00    0.000000  1.000000E+00    0.000000
  0.108761500  8.825628E-01  153.831955  3.574749E-05   15.307944  1.000000E+00    0.000000  1.000000E+00    0.000000
  0.109461250  8.805714E-01  153.655487  3.729053E-05   30.010891  1.000000E+00    0.000000  1.000000E+00    0.000000
