! Anritsu VNA Master:                           Model: MS2025B
! SN:                                  1642059
! /bd0/PROE/TP1/P2/StubOC.s2p
! Existing Calibration Information:
! TYPE:                         Current Settings,       Active Cal Settings
! TIME:             	   04/23/2024 09:40:38 AM,    03/12/2018 12:18:37 PM
! INTERNAL TEMP:    	                   44.0 C,                    41.3 C
! # POINTS:         	                     2143,                      4001
! START FREQ:       	                1.000 MHz,                 1.000 MHz
! STOP FREQ:        	        1.499 864 500 GHz,                 2.800 GHz
! SOURCE POWER:     	                  Default,                   Default
! IFBW:             	                    1 kHz,                     1 kHz
! AVG FACTOR:       	                       1 ,                        1 
! REF PLANE 1:      	                     0 mm,                      0 mm
! REF PLANE 2:      	                     0 mm,                      0 mm
! CAL TYPE:         	             1P2P S11,S21,              1P2P S11,S21
! CAL METHOD:       	                     SOLT,                      SOLT
! CAL LINE TYPE:    	                     Coax,                      Coax
! DUT PORT 1:       	                         ,                          
! DUT PORT 2:       	                N-Conn(M),                 N-Conn(M)
! CAL STATUS:       	        OK: Accuracy High,                        --
# GHZ S MA R 50.0
! FREQ.GHZ       S11M         S11A         S21M         S21A         S12M         S12A         S22M         S22A
  0.001000000  2.392911E-02 -176.744766  2.881235E-05  -69.128860  1.000000E+00    0.000000  1.000000E+00    0.000000
  0.001699750  2.494856E-02 -176.514206  7.274136E-05  -55.237675  1.000000E+00    0.000000  1.000000E+00    0.000000
  0.002399500  2.518100E-02 -175.162506  6.987731E-05  -72.199371  1.000000E+00    0.000000  1.000000E+00    0.000000
  0.003099250  2.426230E-02 -174.151260  5.293778E-05  -35.904072  1.000000E+00    0.000000  1.000000E+00    0.000000
  0.003799000  2.421889E-02 -172.679871  5.127928E-05  -54.651009  1.000000E+00    0.000000  1.000000E+00    0.000000
  0.004498750  2.454323E-02 -170.311905  5.698249E-05    2.620407  1.000000E+00    0.000000  1.000000E+00    0.000000
  0.005198500  2.431668E-02 -168.001114  5.516323E-05  -54.953362  1.000000E+00    0.000000  1.000000E+00    0.000000
  0.005898250  2.471439E-02 -167.054092  5.752927E-05  -75.232246  1.000000E+00    0.000000  1.000000E+00    0.000000
  0.006598000  2.484024E-02 -164.006973  7.784157E-06  -63.085327  1.000000E+00    0.000000  1.000000E+00    0.000000
  0.007297750  2.506361E-02 -161.076630  3.893086E-05  -24.029314  1.000000E+00    0.000000  1.000000E+00    0.000000
  0.007997500  2.553691E-02 -159.758377  4.527215E-05 -178.248459  1.000000E+00    0.000000  1.000000E+00    0.000000
  0.008697250  2.534206E-02 -158.934769  3.135186E-05  -47.360821  1.000000E+00    0.000000  1.000000E+00    0.000000
  0.009397000  2.568285E-02 -157.339905  3.718584E-05 -159.492355  1.000000E+00    0.000000  1.000000E+00    0.000000
  0.010096750  2.560536E-02 -153.656799  4.076299E-05  -70.626785  1.000000E+00    0.000000  1.000000E+00    0.000000
  0.010796500  2.656263E-02 -152.571854  8.092211E-06   44.823467  1.000000E+00    0.000000  1.000000E+00    0.000000
  0.011496250  2.756819E-02 -150.641571  7.606151E-05  -46.367340  1.000000E+00    0.000000  1.000000E+00    0.000000
  0.012196000  2.773984E-02 -149.694061  2.882133E-05   -1.450150  1.000000E+00    0.000000  1.000000E+00    0.000000
  0.012895750  2.867233E-02 -147.661041  4.995211E-05  -76.161079  1.000000E+00    0.000000  1.000000E+00    0.000000
  0.013595500  2.876031E-02 -147.330948  1.244713E-05   44.297768  1.000000E+00    0.000000  1.000000E+00    0.000000
  0.014295250  2.924976E-02 -144.972672  4.518305E-05   -9.008697  1.000000E+00    0.000000  1.000000E+00    0.000000
  0.014995000  3.041425E-02 -144.212891  2.745170E-05   54.600910  1.000000E+00    0.000000  1.000000E+00    0.000000
  0.015694750  3.057019E-02 -142.254501  2.863391E-05   70.211250  1.000000E+00    0.000000  1.000000E+00    0.000000
  0.016394500  3.148957E-02 -141.266479  4.608350E-05  -36.701931  1.000000E+00    0.000000  1.000000E+00    0.000000
  0.017094250  3.129467E-02 -140.396378  4.822937E-05  -35.417831  1.000000E+00    0.000000  1.000000E+00    0.000000
  0.017794000  3.251585E-02 -139.410156  6.547146E-05   61.537914  1.000000E+00    0.000000  1.000000E+00    0.000000
  0.018493750  3.341786E-02 -138.014572  3.659775E-05   14.918192  1.000000E+00    0.000000  1.000000E+00    0.000000
  0.019193500  3.389577E-02 -137.321930  5.412442E-05    3.223117  1.000000E+00    0.000000  1.000000E+00    0.000000
  0.019893250  3.463063E-02 -136.080811  5.781170E-05  -50.792698  1.000000E+00    0.000000  1.000000E+00    0.000000
  0.020593000  3.577236E-02 -135.541931  4.231888E-05   13.306736  1.000000E+00    0.000000  1.000000E+00    0.000000
  0.021292750  3.647492E-02 -135.455521  4.800819E-05   -4.231781  1.000000E+00    0.000000  1.000000E+00    0.000000
  0.021992500  3.653941E-02 -133.923309  2.793301E-05   39.225735  1.000000E+00    0.000000  1.000000E+00    0.000000
  0.022692250  3.731726E-02 -132.539001  4.188626E-05  -33.846031  1.000000E+00    0.000000  1.000000E+00    0.000000
  0.023392000  3.773918E-02 -132.399765  3.192802E-05    6.705754  1.000000E+00    0.000000  1.000000E+00    0.000000
  0.024091750  3.936980E-02 -131.458984  8.063731E-05    8.923066  1.000000E+00    0.000000  1.000000E+00    0.000000
  0.024791500  3.992046E-02 -130.045410  6.227130E-06   35.714653  1.000000E+00    0.000000  1.000000E+00    0.000000
  0.025491250  4.072043E-02 -130.659317  6.853457E-05   10.664114  1.000000E+00    0.000000  1.000000E+00    0.000000
  0.026191000  4.136759E-02 -129.354004  6.552113E-05   20.238272  1.000000E+00    0.000000  1.000000E+00    0.000000
  0.026890750  4.223006E-02 -129.232513  2.145719E-05   77.505318  1.000000E+00    0.000000  1.000000E+00    0.000000
  0.027590500  4.300463E-02 -127.663979  7.414597E-05   44.856346  1.000000E+00    0.000000  1.000000E+00    0.000000
  0.028290250  4.397959E-02 -127.549309  6.095834E-05   55.918976  1.000000E+00    0.000000  1.000000E+00    0.000000
  0.028990000  4.472852E-02 -126.927536  4.608839E-05   27.616880  1.000000E+00    0.000000  1.000000E+00    0.000000
  0.029689750  4.562928E-02 -126.309608  6.893710E-05   48.135880  1.000000E+00    0.000000  1.000000E+00    0.000000
  0.030389500  4.658621E-02 -126.193169  3.652088E-05   45.519180  1.000000E+00    0.000000  1.000000E+00    0.000000
  0.031089250  4.722376E-02 -125.428680  3.009183E-05   26.753662  1.000000E+00    0.000000  1.000000E+00    0.000000
  0.031789000  4.780167E-02 -124.936073  6.295216E-05   13.985739  1.000000E+00    0.000000  1.000000E+00    0.000000
  0.032488750  4.859979E-02 -124.713097  5.939445E-05   39.295753  1.000000E+00    0.000000  1.000000E+00    0.000000
  0.033188500  4.956974E-02 -123.926910  8.243672E-05   35.541290  1.000000E+00    0.000000  1.000000E+00    0.000000
  0.033888250  5.051406E-02 -123.785728  1.646569E-05   22.881670  1.000000E+00    0.000000  1.000000E+00    0.000000
  0.034588000  5.158760E-02 -123.280777  2.587557E-05   46.351665  1.000000E+00    0.000000  1.000000E+00    0.000000
  0.035287750  5.200642E-02 -122.719292  7.473612E-05   72.626389  1.000000E+00    0.000000  1.000000E+00    0.000000
  0.035987500  5.300267E-02 -122.071747  4.697908E-05   77.608704  1.000000E+00    0.000000  1.000000E+00    0.000000
  0.036687250  5.421384E-02 -121.635262  9.599449E-06  -65.611244  1.000000E+00    0.000000  1.000000E+00    0.000000
  0.037387000  5.510688E-02 -121.226799  6.567214E-05   81.215546  1.000000E+00    0.000000  1.000000E+00    0.000000
  0.038086750  5.596744E-02 -120.925903  4.449161E-05   45.214359  1.000000E+00    0.000000  1.000000E+00    0.000000
  0.038786500  5.694632E-02 -120.531723  6.166160E-05   83.729507  1.000000E+00    0.000000  1.000000E+00    0.000000
  0.039486250  5.788000E-02 -119.777008  1.942054E-05   77.251648  1.000000E+00    0.000000  1.000000E+00    0.000000
  0.040186000  5.849536E-02 -119.715637  4.844265E-05   92.560135  1.000000E+00    0.000000  1.000000E+00    0.000000
  0.040885750  5.931035E-02 -119.449944  4.925340E-05   92.785667  1.000000E+00    0.000000  1.000000E+00    0.000000
  0.041585500  6.035889E-02 -118.991127  5.010378E-05   73.802277  1.000000E+00    0.000000  1.000000E+00    0.000000
  0.042285250  6.121072E-02 -118.576469  1.022929E-04   44.580132  1.000000E+00    0.000000  1.000000E+00    0.000000
  0.042985000  6.197833E-02 -118.088127  3.535046E-05   96.178856  1.000000E+00    0.000000  1.000000E+00    0.000000
  0.043684750  6.323233E-02 -117.887711  4.458918E-05   85.373627  1.000000E+00    0.000000  1.000000E+00    0.000000
  0.044384500  6.348751E-02 -117.403313  6.564041E-05   80.647667  1.000000E+00    0.000000  1.000000E+00    0.000000
  0.045084250  6.477278E-02 -117.544144  3.343774E-05   95.796066  1.000000E+00    0.000000  1.000000E+00    0.000000
  0.045784000  6.549588E-02 -117.106270  8.065898E-05  121.622131  1.000000E+00    0.000000  1.000000E+00    0.000000
  0.046483750  6.677762E-02 -116.631393  5.737150E-05   93.179268  1.000000E+00    0.000000  1.000000E+00    0.000000
  0.047183500  6.718881E-02 -116.371613  4.446637E-05  105.814850  1.000000E+00    0.000000  1.000000E+00    0.000000
  0.047883250  6.849478E-02 -116.500809  5.176363E-05   94.379227  1.000000E+00    0.000000  1.000000E+00    0.000000
  0.048583000  6.917650E-02 -115.692078  6.083667E-05   59.361023  1.000000E+00    0.000000  1.000000E+00    0.000000
  0.049282750  7.015511E-02 -115.492355  4.146094E-05  117.082901  1.000000E+00    0.000000  1.000000E+00    0.000000
  0.049982500  7.181147E-02 -115.152100  3.471790E-05 -158.606308  1.000000E+00    0.000000  1.000000E+00    0.000000
  0.050682250  7.238378E-02 -115.015717  4.211738E-05  124.563660  1.000000E+00    0.000000  1.000000E+00    0.000000
  0.051382000  7.281454E-02 -114.538315  8.096019E-05  129.400742  1.000000E+00    0.000000  1.000000E+00    0.000000
  0.052081750  7.363309E-02 -114.443024  6.502178E-05  109.519341  1.000000E+00    0.000000  1.000000E+00    0.000000
  0.052781500  7.486770E-02 -113.991257  4.836242E-05  156.234467  1.000000E+00    0.000000  1.000000E+00    0.000000
  0.053481250  7.558630E-02 -113.899956  4.178928E-05  142.025833  1.000000E+00    0.000000  1.000000E+00    0.000000
  0.054181000  7.671153E-02 -113.700134  6.604067E-05  171.033859  1.000000E+00    0.000000  1.000000E+00    0.000000
  0.054880750  7.738238E-02 -113.641815  6.236463E-05  140.371506  1.000000E+00    0.000000  1.000000E+00    0.000000
  0.055580500  7.780615E-02 -113.484314  7.572956E-05  155.962463  1.000000E+00    0.000000  1.000000E+00    0.000000
  0.056280250  7.876007E-02 -112.920593  4.931751E-05   90.166710  1.000000E+00    0.000000  1.000000E+00    0.000000
  0.056980000  8.020482E-02 -112.542877  6.258456E-05  103.616142  1.000000E+00    0.000000  1.000000E+00    0.000000
  0.057679750  8.075521E-02 -112.386787  6.230083E-05  160.607315  1.000000E+00    0.000000  1.000000E+00    0.000000
  0.058379500  8.140410E-02 -112.234375  3.732131E-05  153.519547  1.000000E+00    0.000000  1.000000E+00    0.000000
  0.059079250  8.257461E-02 -112.157547  5.045480E-05  122.352486  1.000000E+00    0.000000  1.000000E+00    0.000000
  0.059779000  8.318156E-02 -112.028488  6.602430E-05 -179.856705  1.000000E+00    0.000000  1.000000E+00    0.000000
  0.060478750  8.430965E-02 -111.906471  9.357106E-05  152.293121  1.000000E+00    0.000000  1.000000E+00    0.000000
  0.061178500  8.497309E-02 -111.793121  8.167780E-05  171.067902  1.000000E+00    0.000000  1.000000E+00    0.000000
  0.061878250  8.565792E-02 -111.439026  7.729209E-05  170.936752  1.000000E+00    0.000000  1.000000E+00    0.000000
  0.062578000  8.656883E-02 -111.098724  5.276098E-05 -146.178040  1.000000E+00    0.000000  1.000000E+00    0.000000
  0.063277750  8.729595E-02 -111.086449  6.032816E-05 -158.163116  1.000000E+00    0.000000  1.000000E+00    0.000000
  0.063977500  8.804924E-02 -110.887032  1.596428E-05 -109.938156  1.000000E+00    0.000000  1.000000E+00    0.000000
  0.064677250  8.880790E-02 -110.715553  4.835784E-05  141.544296  1.000000E+00    0.000000  1.000000E+00    0.000000
  0.065377000  8.965295E-02 -110.547066  4.448326E-05 -137.757248  1.000000E+00    0.000000  1.000000E+00    0.000000
  0.066076750  9.046686E-02 -110.351006  4.647070E-05 -152.517075  1.000000E+00    0.000000  1.000000E+00    0.000000
  0.066776500  9.124831E-02 -110.246323  5.200022E-05 -154.684036  1.000000E+00    0.000000  1.000000E+00    0.000000
  0.067476250  9.193981E-02 -109.885002  4.276566E-05  177.186157  1.000000E+00    0.000000  1.000000E+00    0.000000
  0.068176000  9.292930E-02 -109.764832  7.588827E-05 -173.512970  1.000000E+00    0.000000  1.000000E+00    0.000000
  0.068875750  9.382878E-02 -109.635841  4.486661E-05 -172.994919  1.000000E+00    0.000000  1.000000E+00    0.000000
  0.069575500  9.427367E-02 -109.718719  3.544196E-05  103.976471  1.000000E+00    0.000000  1.000000E+00    0.000000
  0.070275250  9.522855E-02 -109.444199  3.934229E-05 -173.491104  1.000000E+00    0.000000  1.000000E+00    0.000000
  0.070975000  9.605933E-02 -109.382813  8.748831E-05 -143.684509  1.000000E+00    0.000000  1.000000E+00    0.000000
  0.071674750  9.745514E-02 -109.398750  1.036257E-04 -131.115158  1.000000E+00    0.000000  1.000000E+00    0.000000
  0.072374500  9.734447E-02 -109.178535  3.289396E-05 -112.922073  1.000000E+00    0.000000  1.000000E+00    0.000000
  0.073074250  9.845899E-02 -109.213875  4.849795E-05 -145.418457  1.000000E+00    0.000000  1.000000E+00    0.000000
  0.073774000  9.921408E-02 -109.014633  3.970821E-05  -69.164436  1.000000E+00    0.000000  1.000000E+00    0.000000
  0.074473750  9.977441E-02 -109.037987  6.096960E-05 -159.520874  1.000000E+00    0.000000  1.000000E+00    0.000000
  0.075173500  1.007416E-01 -109.030334  4.242358E-05  -98.294571  1.000000E+00    0.000000  1.000000E+00    0.000000
  0.075873250  1.013827E-01 -108.901360  4.417487E-05 -141.424393  1.000000E+00    0.000000  1.000000E+00    0.000000
  0.076573000  1.023370E-01 -108.620712  2.198139E-05 -160.133392  1.000000E+00    0.000000  1.000000E+00    0.000000
  0.077272750  1.029214E-01 -108.743416  5.573468E-05 -145.080765  1.000000E+00    0.000000  1.000000E+00    0.000000
  0.077972500  1.038934E-01 -108.729240  3.831117E-05  -73.824257  1.000000E+00    0.000000  1.000000E+00    0.000000
  0.078672250  1.046339E-01 -108.553757  1.959078E-05 -126.297836  1.000000E+00    0.000000  1.000000E+00    0.000000
  0.079372000  1.054008E-01 -108.513489  6.316923E-05  -74.978683  1.000000E+00    0.000000  1.000000E+00    0.000000
  0.080071750  1.065767E-01 -108.461349  2.410634E-05 -122.809601  1.000000E+00    0.000000  1.000000E+00    0.000000
  0.080771500  1.066233E-01 -108.442970  4.197094E-05 -112.917938  1.000000E+00    0.000000  1.000000E+00    0.000000
  0.081471250  1.078304E-01 -108.311691  1.748896E-05  -54.869331  1.000000E+00    0.000000  1.000000E+00    0.000000
  0.082171000  1.085086E-01 -108.314911  4.304319E-05  -67.928864  1.000000E+00    0.000000  1.000000E+00    0.000000
  0.082870750  1.094966E-01 -108.202858  6.654977E-05 -105.977966  1.000000E+00    0.000000  1.000000E+00    0.000000
  0.083570500  1.104373E-01 -108.193924  5.008772E-05  -71.022942  1.000000E+00    0.000000  1.000000E+00    0.000000
  0.084270250  1.108524E-01 -108.177979  3.294233E-05  -29.947063  1.000000E+00    0.000000  1.000000E+00    0.000000
  0.084970000  1.122095E-01 -108.027359  4.305717E-05 -101.189430  1.000000E+00    0.000000  1.000000E+00    0.000000
  0.085669750  1.126329E-01 -108.043137  4.043797E-05  -80.962814  1.000000E+00    0.000000  1.000000E+00    0.000000
  0.086369500  1.134706E-01 -107.829208  3.837953E-05  -40.733040  1.000000E+00    0.000000  1.000000E+00    0.000000
  0.087069250  1.144091E-01 -107.895264  6.081189E-05  -99.414520  1.000000E+00    0.000000  1.000000E+00    0.000000
  0.087769000  1.150363E-01 -107.909592  4.173606E-05  -51.907410  1.000000E+00    0.000000  1.000000E+00    0.000000
  0.088468750  1.157421E-01 -107.831551  9.265792E-06  -74.795006  1.000000E+00    0.000000  1.000000E+00    0.000000
  0.089168500  1.168966E-01 -107.725655  2.534391E-05 -119.681374  1.000000E+00    0.000000  1.000000E+00    0.000000
  0.089868250  1.178592E-01 -107.878036  2.315664E-05  -94.402893  1.000000E+00    0.000000  1.000000E+00    0.000000
  0.090568000  1.182387E-01 -107.765900  3.313276E-05  -38.817719  1.000000E+00    0.000000  1.000000E+00    0.000000
  0.091267750  1.192250E-01 -107.810478  5.662736E-05  -65.104065  1.000000E+00    0.000000  1.000000E+00    0.000000
  0.091967500  1.201489E-01 -107.831581  7.010179E-05  -54.045444  1.000000E+00    0.000000  1.000000E+00    0.000000
  0.092667250  1.211039E-01 -107.712425  4.116352E-05   -5.812238  1.000000E+00    0.000000  1.000000E+00    0.000000
  0.093367000  1.213554E-01 -107.725792  3.547804E-05  -34.009609  1.000000E+00    0.000000  1.000000E+00    0.000000
  0.094066750  1.224518E-01 -107.623009  3.912337E-05  -76.567368  1.000000E+00    0.000000  1.000000E+00    0.000000
  0.094766500  1.237589E-01 -107.782494  5.112517E-05  -72.876854  1.000000E+00    0.000000  1.000000E+00    0.000000
  0.095466250  1.240269E-01 -107.676590  5.589548E-05  -69.862366  1.000000E+00    0.000000  1.000000E+00    0.000000
  0.096166000  1.253859E-01 -107.603973  4.269240E-05  -27.677990  1.000000E+00    0.000000  1.000000E+00    0.000000
  0.096865750  1.256710E-01 -107.580956  2.612328E-05   11.202979  1.000000E+00    0.000000  1.000000E+00    0.000000
  0.097565500  1.267136E-01 -107.694336  3.386696E-05  -39.789497  1.000000E+00    0.000000  1.000000E+00    0.000000
  0.098265250  1.275295E-01 -107.506088  2.424049E-05  -70.695038  1.000000E+00    0.000000  1.000000E+00    0.000000
  0.098965000  1.283405E-01 -107.602859  4.754619E-05  -37.174004  1.000000E+00    0.000000  1.000000E+00    0.000000
  0.099664750  1.288602E-01 -107.597557  5.659976E-05  -22.935804  1.000000E+00    0.000000  1.000000E+00    0.000000
  0.100364500  1.298418E-01 -107.632019  2.365504E-05   -1.789709  1.000000E+00    0.000000  1.000000E+00    0.000000
  0.101064250  1.308080E-01 -107.553467  1.989196E-06   92.338234  1.000000E+00    0.000000  1.000000E+00    0.000000
  0.101764000  1.319534E-01 -107.452583  3.142298E-05  -44.050117  1.000000E+00    0.000000  1.000000E+00    0.000000
  0.102463750  1.323345E-01 -107.598564  3.557303E-05    0.531397  1.000000E+00    0.000000  1.000000E+00    0.000000
  0.103163500  1.333099E-01 -107.528496  3.940997E-05  -12.068834  1.000000E+00    0.000000  1.000000E+00    0.000000
  0.103863250  1.345552E-01 -107.322952  4.351968E-05    1.388555  1.000000E+00    0.000000  1.000000E+00    0.000000
  0.104563000  1.353063E-01 -107.565948  4.573484E-05    5.705170  1.000000E+00    0.000000  1.000000E+00    0.000000
  0.105262750  1.362137E-01 -107.603699  5.248782E-05   16.607109  1.000000E+00    0.000000  1.000000E+00    0.000000
  0.105962500  1.365050E-01 -107.635132  3.172586E-05   13.912164  1.000000E+00    0.000000  1.000000E+00    0.000000
  0.106662250  1.373642E-01 -107.615494  3.686440E-05  -51.625061  1.000000E+00    0.000000  1.000000E+00    0.000000
  0.107362000  1.383985E-01 -107.780014  2.452669E-05   24.041014  1.000000E+00    0.000000  1.000000E+00    0.000000
  0.108061750  1.393626E-01 -107.627327  3.380447E-05    0.570456  1.000000E+00    0.000000  1.000000E+00    0.000000
  0.108761500  1.400942E-01 -107.593880  5.044232E-05  -17.011395  1.000000E+00    0.000000  1.000000E+00    0.000000
  0.109461250  1.408601E-01 -107.650345  4.269116E-05   87.477623  1.000000E+00    0.000000  1.000000E+00    0.000000
