! Anritsu VNA Master:                           Model: MS2025B
! SN:                                  1642059
! /bd0/PROE/TP1/P2/TLineSC.s2p
! Existing Calibration Information:
! TYPE:                         Current Settings,       Active Cal Settings
! TIME:             	   04/23/2024 09:25:04 AM,    03/12/2018 11:45:53 AM
! INTERNAL TEMP:    	                   43.8 C,                    40.8 C
! # POINTS:         	                     1715,                      4001
! START FREQ:       	                1.000 MHz,                 1.000 MHz
! STOP FREQ:        	        1.200 371 500 GHz,                 2.800 GHz
! SOURCE POWER:     	                  Default,                   Default
! IFBW:             	                    1 kHz,                     1 kHz
! AVG FACTOR:       	                       1 ,                        1 
! REF PLANE 1:      	                     0 mm,                      0 mm
! REF PLANE 2:      	                     0 mm,                      0 mm
! CAL TYPE:         	             1P2P S11,S21,              1P2P S11,S21
! CAL METHOD:       	                     SOLT,                      SOLT
! CAL LINE TYPE:    	                     Coax,                      Coax
! DUT PORT 1:       	                         ,                          
! DUT PORT 2:       	                N-Conn(M),                 N-Conn(M)
! CAL STATUS:       	        OK: Accuracy High,                        --
# GHZ S MA R 50.0
! FREQ.GHZ       S11M         S11A         S21M         S21A         S12M         S12A         S22M         S22A
  0.001000000  9.974793E-01 -179.796890  4.250274E-05  -76.880676  1.000000E+00    0.000000  1.000000E+00    0.000000
  0.001699750  9.985281E-01  179.968536  7.807402E-05  -61.443623  1.000000E+00    0.000000  1.000000E+00    0.000000
  0.002399500  9.985409E-01  179.697815  6.911069E-05 -108.003426  1.000000E+00    0.000000  1.000000E+00    0.000000
  0.003099250  9.959911E-01  179.375748  6.091021E-05   30.812548  1.000000E+00    0.000000  1.000000E+00    0.000000
  0.003799000  9.986743E-01  179.152206  2.884845E-05  -77.288605  1.000000E+00    0.000000  1.000000E+00    0.000000
  0.004498750  9.958862E-01  178.943726  3.410366E-05  -60.769585  1.000000E+00    0.000000  1.000000E+00    0.000000
  0.005198500  9.949045E-01  178.777390  4.417458E-05   -1.639411  1.000000E+00    0.000000  1.000000E+00    0.000000
  0.005898250  9.969248E-01  178.553192  5.349066E-05  -58.576591  1.000000E+00    0.000000  1.000000E+00    0.000000
  0.006598000  9.957989E-01  178.438202  5.017696E-05  -30.076004  1.000000E+00    0.000000  1.000000E+00    0.000000
  0.007297750  9.947956E-01  178.157028  5.607413E-05  -62.541058  1.000000E+00    0.000000  1.000000E+00    0.000000
  0.007997500  9.935427E-01  178.049515  7.160995E-05  -42.111633  1.000000E+00    0.000000  1.000000E+00    0.000000
  0.008697250  9.947360E-01  177.887512  2.984388E-05  -17.528149  1.000000E+00    0.000000  1.000000E+00    0.000000
  0.009397000  9.963869E-01  177.640152  2.696489E-05   -1.750811  1.000000E+00    0.000000  1.000000E+00    0.000000
  0.010096750  9.972249E-01  177.453369  1.171938E-04  -64.763184  1.000000E+00    0.000000  1.000000E+00    0.000000
  0.010796500  9.972165E-01  177.245087  5.353935E-05   -6.785740  1.000000E+00    0.000000  1.000000E+00    0.000000
  0.011496250  9.980851E-01  177.124100  5.821070E-05  -37.517708  1.000000E+00    0.000000  1.000000E+00    0.000000
  0.012196000  9.976317E-01  176.881134  5.173633E-05  -80.383995  1.000000E+00    0.000000  1.000000E+00    0.000000
  0.012895750  9.973474E-01  176.717468  9.701016E-05    8.145788  1.000000E+00    0.000000  1.000000E+00    0.000000
  0.013595500  9.979605E-01  176.535843  4.065441E-05  -43.469212  1.000000E+00    0.000000  1.000000E+00    0.000000
  0.014295250  9.972094E-01  176.352142  5.323932E-05  -21.777550  1.000000E+00    0.000000  1.000000E+00    0.000000
  0.014995000  9.980207E-01  176.175385  1.020391E-04  -20.521793  1.000000E+00    0.000000  1.000000E+00    0.000000
  0.015694750  9.981905E-01  175.988510  6.200594E-05  -28.332973  1.000000E+00    0.000000  1.000000E+00    0.000000
  0.016394500  9.980600E-01  175.820618  3.014547E-05  -37.431282  1.000000E+00    0.000000  1.000000E+00    0.000000
  0.017094250  9.977465E-01  175.659653  1.777673E-05  -18.771265  1.000000E+00    0.000000  1.000000E+00    0.000000
  0.017794000  9.979402E-01  175.490540  6.553055E-05   -3.358634  1.000000E+00    0.000000  1.000000E+00    0.000000
  0.018493750  9.983682E-01  175.290146  2.958504E-05   11.651590  1.000000E+00    0.000000  1.000000E+00    0.000000
  0.019193500  9.990158E-01  175.123764  3.852363E-05   25.715641  1.000000E+00    0.000000  1.000000E+00    0.000000
  0.019893250  9.985502E-01  174.942734  6.414020E-05  -22.466171  1.000000E+00    0.000000  1.000000E+00    0.000000
  0.020593000  9.989243E-01  174.756424  6.495887E-05  -22.309015  1.000000E+00    0.000000  1.000000E+00    0.000000
  0.021292750  9.990341E-01  174.551895  4.609820E-05  -23.909382  1.000000E+00    0.000000  1.000000E+00    0.000000
  0.021992500  9.995327E-01  174.406265  6.448223E-05    7.503200  1.000000E+00    0.000000  1.000000E+00    0.000000
  0.022692250  9.981968E-01  174.234909  4.108642E-05  -36.861614  1.000000E+00    0.000000  1.000000E+00    0.000000
  0.023392000  9.990913E-01  174.031281  4.685245E-05  -56.628517  1.000000E+00    0.000000  1.000000E+00    0.000000
  0.024091750  9.991759E-01  173.869583  2.633489E-05   -1.428957  1.000000E+00    0.000000  1.000000E+00    0.000000
  0.024791500  9.990703E-01  173.665680  4.998881E-05    9.566056  1.000000E+00    0.000000  1.000000E+00    0.000000
  0.025491250  1.005115E+00  173.683289  5.022434E-05   40.231541  1.000000E+00    0.000000  1.000000E+00    0.000000
  0.026191000  1.004869E+00  173.464264  4.520851E-05   15.856403  1.000000E+00    0.000000  1.000000E+00    0.000000
  0.026890750  1.004526E+00  173.242035  5.673218E-05   26.844627  1.000000E+00    0.000000  1.000000E+00    0.000000
  0.027590500  1.004013E+00  173.056137  5.688310E-05   -4.175665  1.000000E+00    0.000000  1.000000E+00    0.000000
  0.028290250  1.003337E+00  172.843201  3.305256E-05   52.119331  1.000000E+00    0.000000  1.000000E+00    0.000000
  0.028990000  1.003399E+00  172.662491  3.987890E-05   27.551964  1.000000E+00    0.000000  1.000000E+00    0.000000
  0.029689750  1.002707E+00  172.480560  5.457420E-05   36.803627  1.000000E+00    0.000000  1.000000E+00    0.000000
  0.030389500  1.001467E+00  172.242371  3.500364E-05  -18.550377  1.000000E+00    0.000000  1.000000E+00    0.000000
  0.031089250  1.001276E+00  172.118195  3.356472E-05   29.148830  1.000000E+00    0.000000  1.000000E+00    0.000000
  0.031789000  1.000383E+00  171.923615  5.342555E-05   30.181992  1.000000E+00    0.000000  1.000000E+00    0.000000
  0.032488750  1.000147E+00  171.751480  4.708693E-05   41.645828  1.000000E+00    0.000000  1.000000E+00    0.000000
  0.033188500  9.998746E-01  171.542053  2.761664E-05   51.927567  1.000000E+00    0.000000  1.000000E+00    0.000000
  0.033888250  9.994920E-01  171.375839  2.707029E-05   29.065027  1.000000E+00    0.000000  1.000000E+00    0.000000
  0.034588000  9.989116E-01  171.230896  4.622532E-05   84.060867  1.000000E+00    0.000000  1.000000E+00    0.000000
  0.035287750  9.985282E-01  171.068619  1.349653E-05   88.766228  1.000000E+00    0.000000  1.000000E+00    0.000000
  0.035987500  9.983178E-01  170.882690  3.602024E-05   39.903389  1.000000E+00    0.000000  1.000000E+00    0.000000
  0.036687250  9.982033E-01  170.767151  5.733108E-05   71.061790  1.000000E+00    0.000000  1.000000E+00    0.000000
  0.037387000  9.979842E-01  170.545166  3.744073E-05   99.667778  1.000000E+00    0.000000  1.000000E+00    0.000000
  0.038086750  9.977353E-01  170.398956  3.493602E-05   79.762299  1.000000E+00    0.000000  1.000000E+00    0.000000
  0.038786500  9.970062E-01  170.220703  5.752742E-05   53.001083  1.000000E+00    0.000000  1.000000E+00    0.000000
  0.039486250  9.969536E-01  170.070847  5.138085E-05  114.356224  1.000000E+00    0.000000  1.000000E+00    0.000000
  0.040186000  9.962867E-01  169.890335  3.242678E-05   65.313972  1.000000E+00    0.000000  1.000000E+00    0.000000
  0.040885750  9.962738E-01  169.713257  5.245808E-05   57.167732  1.000000E+00    0.000000  1.000000E+00    0.000000
  0.041585500  9.965604E-01  169.539215  6.114151E-05  120.849022  1.000000E+00    0.000000  1.000000E+00    0.000000
  0.042285250  9.963040E-01  169.398621  4.549776E-05   68.031319  1.000000E+00    0.000000  1.000000E+00    0.000000
  0.042985000  9.956913E-01  169.201584  4.160221E-05   95.202942  1.000000E+00    0.000000  1.000000E+00    0.000000
  0.043684750  9.954412E-01  169.040756  1.856475E-05  128.839447  1.000000E+00    0.000000  1.000000E+00    0.000000
  0.044384500  9.955705E-01  168.860596  4.628801E-05  121.020813  1.000000E+00    0.000000  1.000000E+00    0.000000
  0.045084250  9.954866E-01  168.680435  5.540983E-05  132.985428  1.000000E+00    0.000000  1.000000E+00    0.000000
  0.045784000  9.955344E-01  168.520584  3.761915E-05   83.689362  1.000000E+00    0.000000  1.000000E+00    0.000000
  0.046483750  9.953563E-01  168.339355  3.575965E-05   75.308456  1.000000E+00    0.000000  1.000000E+00    0.000000
  0.047183500  9.949858E-01  168.172974  3.530211E-05  131.409088  1.000000E+00    0.000000  1.000000E+00    0.000000
  0.047883250  9.949181E-01  167.985107  2.973539E-05  108.772964  1.000000E+00    0.000000  1.000000E+00    0.000000
  0.048583000  9.949434E-01  167.801498  1.288892E-05  136.271545  1.000000E+00    0.000000  1.000000E+00    0.000000
  0.049282750  9.943520E-01  167.640030  3.557068E-05   91.967674  1.000000E+00    0.000000  1.000000E+00    0.000000
  0.049982500  1.001632E+00  167.634842  7.651721E-05  127.850502  1.000000E+00    0.000000  1.000000E+00    0.000000
  0.050682250  1.000933E+00  167.402740  6.369859E-05  114.137085  1.000000E+00    0.000000  1.000000E+00    0.000000
  0.051382000  1.001198E+00  167.194534  2.965930E-05  120.730682  1.000000E+00    0.000000  1.000000E+00    0.000000
  0.052081750  1.001098E+00  167.060196  7.884343E-05  111.024704  1.000000E+00    0.000000  1.000000E+00    0.000000
  0.052781500  1.001304E+00  166.854218  9.442565E-05  142.234665  1.000000E+00    0.000000  1.000000E+00    0.000000
  0.053481250  1.001004E+00  166.691284  3.857955E-05  124.282059  1.000000E+00    0.000000  1.000000E+00    0.000000
  0.054181000  1.001308E+00  166.466843  6.747030E-05  138.254715  1.000000E+00    0.000000  1.000000E+00    0.000000
  0.054880750  1.000826E+00  166.317123  3.385352E-05   91.208145  1.000000E+00    0.000000  1.000000E+00    0.000000
  0.055580500  1.000470E+00  166.131668  3.664681E-05  118.167763  1.000000E+00    0.000000  1.000000E+00    0.000000
  0.056280250  1.000141E+00  165.940598  6.607918E-05  167.270370  1.000000E+00    0.000000  1.000000E+00    0.000000
  0.056980000  1.000121E+00  165.732040  2.098335E-05 -178.326126  1.000000E+00    0.000000  1.000000E+00    0.000000
  0.057679750  1.000207E+00  165.547256  7.036466E-05  174.626236  1.000000E+00    0.000000  1.000000E+00    0.000000
  0.058379500  1.000241E+00  165.372467  2.621638E-05 -160.817734  1.000000E+00    0.000000  1.000000E+00    0.000000
  0.059079250  1.000119E+00  165.215591  6.912773E-05 -157.701202  1.000000E+00    0.000000  1.000000E+00    0.000000
  0.059779000  9.996984E-01  165.044907  3.674033E-05  156.509811  1.000000E+00    0.000000  1.000000E+00    0.000000
  0.060478750  9.997645E-01  164.868729  9.658023E-05  175.478058  1.000000E+00    0.000000  1.000000E+00    0.000000
  0.061178500  9.989516E-01  164.702576  4.876003E-05 -159.892944  1.000000E+00    0.000000  1.000000E+00    0.000000
  0.061878250  9.987512E-01  164.491409  3.844617E-05 -148.677719  1.000000E+00    0.000000  1.000000E+00    0.000000
  0.062578000  9.973947E-01  164.289886  2.395431E-05 -178.437485  1.000000E+00    0.000000  1.000000E+00    0.000000
  0.063277750  9.980788E-01  164.130905  4.390253E-05  116.243469  1.000000E+00    0.000000  1.000000E+00    0.000000
  0.063977500  9.978648E-01  163.991623  6.859408E-05  171.384247  1.000000E+00    0.000000  1.000000E+00    0.000000
  0.064677250  9.980215E-01  163.810760  6.779818E-05 -128.103638  1.000000E+00    0.000000  1.000000E+00    0.000000
  0.065377000  9.967798E-01  163.602890  4.037474E-05 -179.438782  1.000000E+00    0.000000  1.000000E+00    0.000000
  0.066076750  9.967783E-01  163.441269  2.601388E-05  161.356277  1.000000E+00    0.000000  1.000000E+00    0.000000
  0.066776500  9.967887E-01  163.290268  4.637473E-05 -167.672653  1.000000E+00    0.000000  1.000000E+00    0.000000
  0.067476250  9.963516E-01  163.117477  6.399617E-05 -166.974365  1.000000E+00    0.000000  1.000000E+00    0.000000
  0.068176000  9.957156E-01  162.926834  4.333804E-05 -146.715286  1.000000E+00    0.000000  1.000000E+00    0.000000
  0.068875750  9.951324E-01  162.736740  7.017796E-05 -125.870155  1.000000E+00    0.000000  1.000000E+00    0.000000
  0.069575500  9.952841E-01  162.597427  5.930265E-05 -148.767441  1.000000E+00    0.000000  1.000000E+00    0.000000
  0.070275250  9.954126E-01  162.440201  4.129899E-05 -138.523224  1.000000E+00    0.000000  1.000000E+00    0.000000
  0.070975000  9.948791E-01  162.230225  7.476256E-05 -136.993958  1.000000E+00    0.000000  1.000000E+00    0.000000
  0.071674750  9.953853E-01  162.016464  1.935115E-05 -136.416489  1.000000E+00    0.000000  1.000000E+00    0.000000
  0.072374500  9.943832E-01  161.874802  9.406454E-05 -168.972855  1.000000E+00    0.000000  1.000000E+00    0.000000
  0.073074250  9.942475E-01  161.663162  4.153024E-05 -111.781578  1.000000E+00    0.000000  1.000000E+00    0.000000
  0.073774000  9.938504E-01  161.501114  8.469378E-05 -129.504578  1.000000E+00    0.000000  1.000000E+00    0.000000
  0.074473750  9.935371E-01  161.313019  4.477056E-05 -122.627701  1.000000E+00    0.000000  1.000000E+00    0.000000
  0.075173500  9.935484E-01  161.101318  4.922387E-05 -105.049446  1.000000E+00    0.000000  1.000000E+00    0.000000
  0.075873250  9.927242E-01  160.942276  4.866240E-05 -126.861298  1.000000E+00    0.000000  1.000000E+00    0.000000
  0.076573000  9.932197E-01  160.766144  5.944461E-05 -100.518013  1.000000E+00    0.000000  1.000000E+00    0.000000
  0.077272750  9.928526E-01  160.530792  4.591301E-05 -111.861679  1.000000E+00    0.000000  1.000000E+00    0.000000
  0.077972500  9.925826E-01  160.370789  8.078198E-05 -124.250946  1.000000E+00    0.000000  1.000000E+00    0.000000
  0.078672250  9.923192E-01  160.191299  5.207945E-05 -143.703705  1.000000E+00    0.000000  1.000000E+00    0.000000
  0.079372000  9.925892E-01  160.036697  4.687457E-05  -80.228203  1.000000E+00    0.000000  1.000000E+00    0.000000
  0.080071750  9.926945E-01  159.813568  8.700442E-05 -122.820915  1.000000E+00    0.000000  1.000000E+00    0.000000
  0.080771500  9.929972E-01  159.680878  9.167249E-05 -103.814384  1.000000E+00    0.000000  1.000000E+00    0.000000
  0.081471250  9.925690E-01  159.472687  5.439261E-05  -83.963440  1.000000E+00    0.000000  1.000000E+00    0.000000
  0.082171000  9.924229E-01  159.273376  6.766217E-05  -98.296860  1.000000E+00    0.000000  1.000000E+00    0.000000
  0.082870750  9.919482E-01  159.061264  9.041696E-05 -117.178413  1.000000E+00    0.000000  1.000000E+00    0.000000
  0.083570500  9.914137E-01  158.877563  8.286072E-05  -75.439621  1.000000E+00    0.000000  1.000000E+00    0.000000
  0.084270250  9.922711E-01  158.693604  4.387639E-05  -87.226669  1.000000E+00    0.000000  1.000000E+00    0.000000
  0.084970000  9.918019E-01  158.503021  7.879800E-05  -61.739056  1.000000E+00    0.000000  1.000000E+00    0.000000
  0.085669750  9.915924E-01  158.263184  4.888469E-05  -94.392563  1.000000E+00    0.000000  1.000000E+00    0.000000
  0.086369500  9.919275E-01  158.127686  3.661034E-05  -61.744663  1.000000E+00    0.000000  1.000000E+00    0.000000
  0.087069250  9.915631E-01  157.905441  5.783816E-05  -57.349670  1.000000E+00    0.000000  1.000000E+00    0.000000
  0.087769000  9.918852E-01  157.720596  8.217387E-05  -69.741508  1.000000E+00    0.000000  1.000000E+00    0.000000
  0.088468750  9.924154E-01  157.513687  3.975555E-05  -82.415085  1.000000E+00    0.000000  1.000000E+00    0.000000
  0.089168500  9.920883E-01  157.305817  2.408952E-05  -35.078201  1.000000E+00    0.000000  1.000000E+00    0.000000
  0.089868250  9.917415E-01  157.073181  7.480982E-05  -66.680054  1.000000E+00    0.000000  1.000000E+00    0.000000
  0.090568000  9.920918E-01  156.958588  5.157134E-05  -61.575344  1.000000E+00    0.000000  1.000000E+00    0.000000
  0.091267750  9.915984E-01  156.778580  5.480582E-05  -33.588352  1.000000E+00    0.000000  1.000000E+00    0.000000
  0.091967500  9.922589E-01  156.596191  4.528273E-05  -42.358284  1.000000E+00    0.000000  1.000000E+00    0.000000
  0.092667250  9.925016E-01  156.427780  4.595937E-05  -73.283875  1.000000E+00    0.000000  1.000000E+00    0.000000
  0.093367000  9.922665E-01  156.188736  5.925365E-05  -49.427944  1.000000E+00    0.000000  1.000000E+00    0.000000
  0.094066750  9.925251E-01  155.980881  3.717967E-05 -103.468880  1.000000E+00    0.000000  1.000000E+00    0.000000
  0.094766500  9.917954E-01  155.798096  4.040376E-05  -73.426163  1.000000E+00    0.000000  1.000000E+00    0.000000
  0.095466250  9.920490E-01  155.580338  4.083403E-05  -49.431473  1.000000E+00    0.000000  1.000000E+00    0.000000
  0.096166000  9.927620E-01  155.409561  4.308633E-05  -31.052608  1.000000E+00    0.000000  1.000000E+00    0.000000
  0.096865750  9.931033E-01  155.195648  6.316573E-05  -38.878036  1.000000E+00    0.000000  1.000000E+00    0.000000
  0.097565500  9.928106E-01  154.999863  3.872702E-05  -18.027679  1.000000E+00    0.000000  1.000000E+00    0.000000
  0.098265250  9.929938E-01  154.857712  3.133604E-05  -60.989368  1.000000E+00    0.000000  1.000000E+00    0.000000
  0.098965000  9.938387E-01  154.616745  5.077227E-05  -52.710075  1.000000E+00    0.000000  1.000000E+00    0.000000
  0.099664750  9.939253E-01  154.434967  5.122185E-05  -19.069334  1.000000E+00    0.000000  1.000000E+00    0.000000
  0.100364500  9.960243E-01  154.303513  4.009725E-05  -60.760262  1.000000E+00    0.000000  1.000000E+00    0.000000
  0.101064250  9.958131E-01  154.164963  3.005935E-05  -10.212700  1.000000E+00    0.000000  1.000000E+00    0.000000
  0.101764000  9.962370E-01  153.963562  3.074167E-05  -24.462805  1.000000E+00    0.000000  1.000000E+00    0.000000
  0.102463750  9.961945E-01  153.749786  4.456461E-05   -7.034018  1.000000E+00    0.000000  1.000000E+00    0.000000
  0.103163500  9.961886E-01  153.602859  3.737567E-05  -14.700501  1.000000E+00    0.000000  1.000000E+00    0.000000
  0.103863250  9.971424E-01  153.414490  3.326398E-05   29.642054  1.000000E+00    0.000000  1.000000E+00    0.000000
  0.104563000  9.965713E-01  153.203140  1.424131E-05   85.191887  1.000000E+00    0.000000  1.000000E+00    0.000000
  0.105262750  9.974242E-01  153.085464  5.837532E-05   25.230806  1.000000E+00    0.000000  1.000000E+00    0.000000
  0.105962500  9.970194E-01  152.878372  3.897578E-05   20.222136  1.000000E+00    0.000000  1.000000E+00    0.000000
  0.106662250  9.966588E-01  152.761581  4.576274E-05   -8.042872  1.000000E+00    0.000000  1.000000E+00    0.000000
  0.107362000  9.972425E-01  152.535370  3.169970E-05   25.498253  1.000000E+00    0.000000  1.000000E+00    0.000000
  0.108061750  9.966495E-01  152.357422  2.277106E-05  -16.229763  1.000000E+00    0.000000  1.000000E+00    0.000000
  0.108761500  9.969844E-01  152.184677  2.163413E-05  104.456886  1.000000E+00    0.000000  1.000000E+00    0.000000
  0.109461250  9.969537E-01  152.010056  2.847385E-05   -6.704935  1.000000E+00    0.000000  1.000000E+00    0.000000
