! Anritsu VNA Master:                           Model: MS2025B
! SN:                                  1642059
! /bd0/PROE/TP1/P2/TLineOC.s2p
! Existing Calibration Information:
! TYPE:                         Current Settings,       Active Cal Settings
! TIME:             	   04/23/2024 09:29:02 AM,    03/12/2018 11:45:53 AM
! INTERNAL TEMP:    	                   43.8 C,                    40.8 C
! # POINTS:         	                     1715,                      4001
! START FREQ:       	                1.000 MHz,                 1.000 MHz
! STOP FREQ:        	        1.200 371 500 GHz,                 2.800 GHz
! SOURCE POWER:     	                  Default,                   Default
! IFBW:             	                    1 kHz,                     1 kHz
! AVG FACTOR:       	                       1 ,                        1 
! REF PLANE 1:      	                     0 mm,                      0 mm
! REF PLANE 2:      	                     0 mm,                      0 mm
! CAL TYPE:         	             1P2P S11,S21,              1P2P S11,S21
! CAL METHOD:       	                     SOLT,                      SOLT
! CAL LINE TYPE:    	                     Coax,                      Coax
! DUT PORT 1:       	                         ,                          
! DUT PORT 2:       	                N-Conn(M),                 N-Conn(M)
! CAL STATUS:       	        OK: Accuracy High,                        --
# GHZ S MA R 50.0
! FREQ.GHZ       S11M         S11A         S21M         S21A         S12M         S12A         S22M         S22A
  0.001000000  9.957334E-01    0.248249  2.118628E-05 -132.237396  1.000000E+00    0.000000  1.000000E+00    0.000000
  0.001699750  9.913325E-01    0.060348  9.798275E-05  -47.561348  1.000000E+00    0.000000  1.000000E+00    0.000000
  0.002399500  9.900125E-01   -0.171789  3.502128E-05  -64.875801  1.000000E+00    0.000000  1.000000E+00    0.000000
  0.003099250  9.887687E-01   -0.436508  4.814531E-05  -31.344151  1.000000E+00    0.000000  1.000000E+00    0.000000
  0.003799000  9.923562E-01   -0.620628  6.298829E-05  -77.987167  1.000000E+00    0.000000  1.000000E+00    0.000000
  0.004498750  9.901102E-01   -0.866255  2.708482E-05  -87.149223  1.000000E+00    0.000000  1.000000E+00    0.000000
  0.005198500  9.898793E-01   -1.044091  3.868363E-05  -40.508358  1.000000E+00    0.000000  1.000000E+00    0.000000
  0.005898250  9.914596E-01   -1.277828  3.664944E-05  -31.148111  1.000000E+00    0.000000  1.000000E+00    0.000000
  0.006598000  9.908352E-01   -1.454317  4.095698E-05  -46.797855  1.000000E+00    0.000000  1.000000E+00    0.000000
  0.007297750  9.902486E-01   -1.617708  7.196151E-05  -76.107529  1.000000E+00    0.000000  1.000000E+00    0.000000
  0.007997500  9.894480E-01   -1.906922  6.216422E-05   40.639503  1.000000E+00    0.000000  1.000000E+00    0.000000
  0.008697250  9.912948E-01   -2.146883  5.029540E-05  -16.989216  1.000000E+00    0.000000  1.000000E+00    0.000000
  0.009397000  9.912593E-01   -2.374735  2.928692E-05  -31.900618  1.000000E+00    0.000000  1.000000E+00    0.000000
  0.010096750  9.926050E-01   -2.547551  5.752562E-05   13.918094  1.000000E+00    0.000000  1.000000E+00    0.000000
  0.010796500  9.937869E-01   -2.754165  9.870023E-06  -49.556751  1.000000E+00    0.000000  1.000000E+00    0.000000
  0.011496250  9.938445E-01   -2.968434  9.270581E-05  -46.800247  1.000000E+00    0.000000  1.000000E+00    0.000000
  0.012196000  9.928115E-01   -3.170387  2.789519E-05   -2.657264  1.000000E+00    0.000000  1.000000E+00    0.000000
  0.012895750  9.935124E-01   -3.432577  6.615938E-05  -11.432083  1.000000E+00    0.000000  1.000000E+00    0.000000
  0.013595500  9.937938E-01   -3.644521  1.543424E-05 -136.055832  1.000000E+00    0.000000  1.000000E+00    0.000000
  0.014295250  9.941952E-01   -3.847080  3.667236E-05  -37.352798  1.000000E+00    0.000000  1.000000E+00    0.000000
  0.014995000  9.941549E-01   -4.000951  3.749099E-05  -20.634300  1.000000E+00    0.000000  1.000000E+00    0.000000
  0.015694750  9.944618E-01   -4.250955  6.864826E-05    4.457680  1.000000E+00    0.000000  1.000000E+00    0.000000
  0.016394500  9.934087E-01   -4.441855  4.850047E-05  -19.328537  1.000000E+00    0.000000  1.000000E+00    0.000000
  0.017094250  9.937696E-01   -4.653328  4.079855E-05    9.258929  1.000000E+00    0.000000  1.000000E+00    0.000000
  0.017794000  9.939222E-01   -4.894424  2.864577E-05   23.775814  1.000000E+00    0.000000  1.000000E+00    0.000000
  0.018493750  9.945241E-01   -5.091467  2.454037E-05   32.622917  1.000000E+00    0.000000  1.000000E+00    0.000000
  0.019193500  9.947838E-01   -5.302362  5.354828E-05   35.028698  1.000000E+00    0.000000  1.000000E+00    0.000000
  0.019893250  9.939967E-01   -5.481072  1.960632E-05   42.488743  1.000000E+00    0.000000  1.000000E+00    0.000000
  0.020593000  9.948894E-01   -5.648274  3.255627E-05   -6.718459  1.000000E+00    0.000000  1.000000E+00    0.000000
  0.021292750  9.937494E-01   -5.862498  1.880559E-05  -51.023293  1.000000E+00    0.000000  1.000000E+00    0.000000
  0.021992500  9.939042E-01   -6.081894  3.463152E-05   11.099681  1.000000E+00    0.000000  1.000000E+00    0.000000
  0.022692250  9.937932E-01   -6.312923  1.601554E-05 -126.967751  1.000000E+00    0.000000  1.000000E+00    0.000000
  0.023392000  9.931772E-01   -6.496408  5.273639E-05   -4.392389  1.000000E+00    0.000000  1.000000E+00    0.000000
  0.024091750  9.942610E-01   -6.721111  3.677153E-05   81.820984  1.000000E+00    0.000000  1.000000E+00    0.000000
  0.024791500  9.940218E-01   -6.884403  2.663650E-05  -37.134388  1.000000E+00    0.000000  1.000000E+00    0.000000
  0.025491250  9.987221E-01   -6.931304  4.491538E-05    9.897474  1.000000E+00    0.000000  1.000000E+00    0.000000
  0.026191000  9.991125E-01   -7.131162  4.772267E-05  -10.089209  1.000000E+00    0.000000  1.000000E+00    0.000000
  0.026890750  9.988211E-01   -7.399609  3.088179E-05   24.204971  1.000000E+00    0.000000  1.000000E+00    0.000000
  0.027590500  9.983977E-01   -7.622263  8.180024E-05    9.621864  1.000000E+00    0.000000  1.000000E+00    0.000000
  0.028290250  9.983540E-01   -7.890828  5.788665E-05   67.641411  1.000000E+00    0.000000  1.000000E+00    0.000000
  0.028990000  9.972242E-01   -8.114907  2.099500E-05   44.932846  1.000000E+00    0.000000  1.000000E+00    0.000000
  0.029689750  9.968054E-01   -8.340776  1.167725E-04   29.431749  1.000000E+00    0.000000  1.000000E+00    0.000000
  0.030389500  9.968241E-01   -8.529467  4.145503E-05   12.359899  1.000000E+00    0.000000  1.000000E+00    0.000000
  0.031089250  9.955562E-01   -8.811240  3.536685E-05   35.225395  1.000000E+00    0.000000  1.000000E+00    0.000000
  0.031789000  9.949487E-01   -9.010771  5.486983E-05   44.782547  1.000000E+00    0.000000  1.000000E+00    0.000000
  0.032488750  9.939590E-01   -9.221586  8.084228E-05   59.834335  1.000000E+00    0.000000  1.000000E+00    0.000000
  0.033188500  9.934785E-01   -9.429708  4.302790E-05   43.214382  1.000000E+00    0.000000  1.000000E+00    0.000000
  0.033888250  9.935692E-01   -9.595596  4.599100E-05   48.434196  1.000000E+00    0.000000  1.000000E+00    0.000000
  0.034588000  9.931338E-01   -9.863131  4.907215E-05   78.122414  1.000000E+00    0.000000  1.000000E+00    0.000000
  0.035287750  9.922647E-01  -10.069607  2.398803E-05  124.075424  1.000000E+00    0.000000  1.000000E+00    0.000000
  0.035987500  9.922894E-01  -10.219167  3.780053E-05   27.051760  1.000000E+00    0.000000  1.000000E+00    0.000000
  0.036687250  9.919147E-01  -10.469859  2.159060E-05   99.875298  1.000000E+00    0.000000  1.000000E+00    0.000000
  0.037387000  9.912258E-01  -10.684792  5.887212E-05   82.828850  1.000000E+00    0.000000  1.000000E+00    0.000000
  0.038086750  9.910878E-01  -10.877441  7.607101E-05   92.611534  1.000000E+00    0.000000  1.000000E+00    0.000000
  0.038786500  9.909812E-01  -11.088767  6.908314E-05   76.441254  1.000000E+00    0.000000  1.000000E+00    0.000000
  0.039486250  9.908760E-01  -11.332294  6.083881E-05   59.635365  1.000000E+00    0.000000  1.000000E+00    0.000000
  0.040186000  9.902833E-01  -11.513950  2.071330E-05   58.162857  1.000000E+00    0.000000  1.000000E+00    0.000000
  0.040885750  9.913469E-01  -11.704984  6.631215E-05  106.694504  1.000000E+00    0.000000  1.000000E+00    0.000000
  0.041585500  9.902232E-01  -11.912704  7.770450E-05   65.176285  1.000000E+00    0.000000  1.000000E+00    0.000000
  0.042285250  9.897792E-01  -12.112842  9.989511E-05   94.980049  1.000000E+00    0.000000  1.000000E+00    0.000000
  0.042985000  9.898399E-01  -12.356585  5.885669E-05   67.660568  1.000000E+00    0.000000  1.000000E+00    0.000000
  0.043684750  9.898399E-01  -12.541057  2.932461E-05  100.056198  1.000000E+00    0.000000  1.000000E+00    0.000000
  0.044384500  9.892927E-01  -12.783294  6.199189E-05   69.924126  1.000000E+00    0.000000  1.000000E+00    0.000000
  0.045084250  9.892878E-01  -12.976146  5.391370E-05   84.350136  1.000000E+00    0.000000  1.000000E+00    0.000000
  0.045784000  9.894387E-01  -13.143491  8.896046E-05   83.073486  1.000000E+00    0.000000  1.000000E+00    0.000000
  0.046483750  9.892595E-01  -13.407930  1.162784E-04  127.241959  1.000000E+00    0.000000  1.000000E+00    0.000000
  0.047183500  9.899701E-01  -13.569296  7.253952E-05  118.555855  1.000000E+00    0.000000  1.000000E+00    0.000000
  0.047883250  9.884381E-01  -13.812919  7.377536E-05  107.363914  1.000000E+00    0.000000  1.000000E+00    0.000000
  0.048583000  9.893728E-01  -14.006748  6.489422E-05  132.179413  1.000000E+00    0.000000  1.000000E+00    0.000000
  0.049282750  9.891533E-01  -14.199068  5.332439E-05   91.125862  1.000000E+00    0.000000  1.000000E+00    0.000000
  0.049982500  9.968584E-01  -14.339384  1.156687E-04  136.956345  1.000000E+00    0.000000  1.000000E+00    0.000000
  0.050682250  9.969785E-01  -14.562605  8.311217E-05   81.278252  1.000000E+00    0.000000  1.000000E+00    0.000000
  0.051382000  9.980186E-01  -14.798361  2.640300E-05  153.713089  1.000000E+00    0.000000  1.000000E+00    0.000000
  0.052081750  9.969009E-01  -15.011606  7.861850E-05  113.479141  1.000000E+00    0.000000  1.000000E+00    0.000000
  0.052781500  9.974244E-01  -15.206793  6.481072E-05   97.744972  1.000000E+00    0.000000  1.000000E+00    0.000000
  0.053481250  9.971237E-01  -15.347838  5.759826E-05  126.147430  1.000000E+00    0.000000  1.000000E+00    0.000000
  0.054181000  9.976203E-01  -15.660659  7.331551E-05  156.412109  1.000000E+00    0.000000  1.000000E+00    0.000000
  0.054880750  9.971848E-01  -15.895761  4.391140E-05   58.805176  1.000000E+00    0.000000  1.000000E+00    0.000000
  0.055580500  9.970835E-01  -16.081768  5.438284E-05  146.494690  1.000000E+00    0.000000  1.000000E+00    0.000000
  0.056280250  9.977996E-01  -16.347679  2.596285E-05 -169.007675  1.000000E+00    0.000000  1.000000E+00    0.000000
  0.056980000  9.981686E-01  -16.542557  8.871791E-05  151.986420  1.000000E+00    0.000000  1.000000E+00    0.000000
  0.057679750  9.978189E-01  -16.719257  6.258988E-05  173.926895  1.000000E+00    0.000000  1.000000E+00    0.000000
  0.058379500  9.976586E-01  -16.986179  1.014824E-04 -166.603439  1.000000E+00    0.000000  1.000000E+00    0.000000
  0.059079250  9.973239E-01  -17.126600  5.446936E-05  158.859177  1.000000E+00    0.000000  1.000000E+00    0.000000
  0.059779000  9.964476E-01  -17.380085  6.359104E-05 -169.781601  1.000000E+00    0.000000  1.000000E+00    0.000000
  0.060478750  9.962440E-01  -17.531281  7.097932E-05  165.955276  1.000000E+00    0.000000  1.000000E+00    0.000000
  0.061178500  9.963282E-01  -17.783522  9.057100E-05  170.571274  1.000000E+00    0.000000  1.000000E+00    0.000000
  0.061878250  9.959079E-01  -17.994164  7.747455E-05  173.170990  1.000000E+00    0.000000  1.000000E+00    0.000000
  0.062578000  9.955782E-01  -18.190134  2.923036E-05  104.141815  1.000000E+00    0.000000  1.000000E+00    0.000000
  0.063277750  9.953920E-01  -18.438007  9.211260E-05 -159.267151  1.000000E+00    0.000000  1.000000E+00    0.000000
  0.063977500  9.952960E-01  -18.559010  7.358889E-05 -176.457703  1.000000E+00    0.000000  1.000000E+00    0.000000
  0.064677250  9.946995E-01  -18.803314  3.323312E-05 -159.725464  1.000000E+00    0.000000  1.000000E+00    0.000000
  0.065377000  9.948132E-01  -18.963060  2.590840E-05  134.370422  1.000000E+00    0.000000  1.000000E+00    0.000000
  0.066076750  9.942631E-01  -19.158878  1.014057E-04 -172.754501  1.000000E+00    0.000000  1.000000E+00    0.000000
  0.066776500  9.940072E-01  -19.337095  5.720464E-05 -130.085770  1.000000E+00    0.000000  1.000000E+00    0.000000
  0.067476250  9.940236E-01  -19.545689  6.420403E-05 -169.103256  1.000000E+00    0.000000  1.000000E+00    0.000000
  0.068176000  9.938677E-01  -19.707895  6.227092E-05 -173.379745  1.000000E+00    0.000000  1.000000E+00    0.000000
  0.068875750  9.934033E-01  -19.877846  2.760898E-05  156.020630  1.000000E+00    0.000000  1.000000E+00    0.000000
  0.069575500  9.934722E-01  -20.048586  3.812287E-05 -136.819168  1.000000E+00    0.000000  1.000000E+00    0.000000
  0.070275250  9.926016E-01  -20.278034  6.228750E-05 -175.402695  1.000000E+00    0.000000  1.000000E+00    0.000000
  0.070975000  9.928645E-01  -20.452599  6.949851E-05 -134.397049  1.000000E+00    0.000000  1.000000E+00    0.000000
  0.071674750  9.924283E-01  -20.639009  4.816701E-05  171.636841  1.000000E+00    0.000000  1.000000E+00    0.000000
  0.072374500  9.924273E-01  -20.872158  6.229039E-05 -139.567062  1.000000E+00    0.000000  1.000000E+00    0.000000
  0.073074250  9.916453E-01  -21.070454  3.995912E-05 -131.952225  1.000000E+00    0.000000  1.000000E+00    0.000000
  0.073774000  9.923347E-01  -21.212967  9.345326E-05 -137.873428  1.000000E+00    0.000000  1.000000E+00    0.000000
  0.074473750  9.911718E-01  -21.439146  4.668357E-05 -141.107498  1.000000E+00    0.000000  1.000000E+00    0.000000
  0.075173500  9.907985E-01  -21.598927  4.654847E-05 -113.238853  1.000000E+00    0.000000  1.000000E+00    0.000000
  0.075873250  9.908829E-01  -21.828274  3.457294E-05 -148.335831  1.000000E+00    0.000000  1.000000E+00    0.000000
  0.076573000  9.909362E-01  -22.022373  8.353669E-06 -101.009674  1.000000E+00    0.000000  1.000000E+00    0.000000
  0.077272750  9.907550E-01  -22.210703  2.099039E-05  -86.988472  1.000000E+00    0.000000  1.000000E+00    0.000000
  0.077972500  9.905781E-01  -22.405008  2.658005E-05 -118.860687  1.000000E+00    0.000000  1.000000E+00    0.000000
  0.078672250  9.905831E-01  -22.606236  4.772726E-05 -138.198334  1.000000E+00    0.000000  1.000000E+00    0.000000
  0.079372000  9.896694E-01  -22.818192  6.187228E-05 -131.364120  1.000000E+00    0.000000  1.000000E+00    0.000000
  0.080071750  9.893346E-01  -22.985226  3.897719E-05 -104.338097  1.000000E+00    0.000000  1.000000E+00    0.000000
  0.080771500  9.894582E-01  -23.199116  7.587161E-05 -111.468399  1.000000E+00    0.000000  1.000000E+00    0.000000
  0.081471250  9.888633E-01  -23.394445  4.000868E-05 -119.483353  1.000000E+00    0.000000  1.000000E+00    0.000000
  0.082171000  9.893135E-01  -23.567286  3.592589E-05  -92.212822  1.000000E+00    0.000000  1.000000E+00    0.000000
  0.082870750  9.896244E-01  -23.770058  3.758861E-05  -71.231583  1.000000E+00    0.000000  1.000000E+00    0.000000
  0.083570500  9.889891E-01  -23.976849  7.183363E-05  -85.461639  1.000000E+00    0.000000  1.000000E+00    0.000000
  0.084270250  9.885195E-01  -24.166965  3.580168E-05  -94.220253  1.000000E+00    0.000000  1.000000E+00    0.000000
  0.084970000  9.890614E-01  -24.323332  3.210212E-05  -43.764996  1.000000E+00    0.000000  1.000000E+00    0.000000
  0.085669750  9.884045E-01  -24.510025  4.084980E-05 -105.513191  1.000000E+00    0.000000  1.000000E+00    0.000000
  0.086369500  9.878474E-01  -24.712137  5.179504E-05  -92.303078  1.000000E+00    0.000000  1.000000E+00    0.000000
  0.087069250  9.878927E-01  -24.906765  3.089340E-05  -67.738266  1.000000E+00    0.000000  1.000000E+00    0.000000
  0.087769000  9.879938E-01  -25.093891  5.051189E-05  -78.187576  1.000000E+00    0.000000  1.000000E+00    0.000000
  0.088468750  9.881392E-01  -25.310902  2.324509E-05  -65.504562  1.000000E+00    0.000000  1.000000E+00    0.000000
  0.089168500  9.876852E-01  -25.494896  2.077919E-05  -70.615753  1.000000E+00    0.000000  1.000000E+00    0.000000
  0.089868250  9.873546E-01  -25.680662  4.304571E-05 -104.296631  1.000000E+00    0.000000  1.000000E+00    0.000000
  0.090568000  9.869553E-01  -25.872650  2.370685E-05  -85.863846  1.000000E+00    0.000000  1.000000E+00    0.000000
  0.091267750  9.877241E-01  -26.094927  3.720509E-05  -54.991085  1.000000E+00    0.000000  1.000000E+00    0.000000
  0.091967500  9.871047E-01  -26.286753  4.162519E-05  -90.531342  1.000000E+00    0.000000  1.000000E+00    0.000000
  0.092667250  9.862769E-01  -26.484901  1.652378E-05 -140.416901  1.000000E+00    0.000000  1.000000E+00    0.000000
  0.093367000  9.869666E-01  -26.665186  2.834586E-05  -80.121559  1.000000E+00    0.000000  1.000000E+00    0.000000
  0.094066750  9.869118E-01  -26.891722  2.718144E-05  -38.436348  1.000000E+00    0.000000  1.000000E+00    0.000000
  0.094766500  9.858381E-01  -27.107605  5.831455E-05  -46.515018  1.000000E+00    0.000000  1.000000E+00    0.000000
  0.095466250  9.863122E-01  -27.317347  2.355153E-05  -94.980827  1.000000E+00    0.000000  1.000000E+00    0.000000
  0.096166000  9.862154E-01  -27.485748  4.492290E-05  -55.431744  1.000000E+00    0.000000  1.000000E+00    0.000000
  0.096865750  9.867888E-01  -27.639425  5.132489E-05  -55.260895  1.000000E+00    0.000000  1.000000E+00    0.000000
  0.097565500  9.864608E-01  -27.871454  4.837967E-05  -35.941677  1.000000E+00    0.000000  1.000000E+00    0.000000
  0.098265250  9.863513E-01  -28.087543  2.268740E-05   31.618158  1.000000E+00    0.000000  1.000000E+00    0.000000
  0.098965000  9.871169E-01  -28.273670  3.807152E-05  -34.918232  1.000000E+00    0.000000  1.000000E+00    0.000000
  0.099664750  9.866803E-01  -28.447077  3.476998E-05  -26.371752  1.000000E+00    0.000000  1.000000E+00    0.000000
  0.100364500  9.890916E-01  -28.589306  3.702991E-05    3.867060  1.000000E+00    0.000000  1.000000E+00    0.000000
  0.101064250  9.894082E-01  -28.823792  2.770339E-05   40.163273  1.000000E+00    0.000000  1.000000E+00    0.000000
  0.101764000  9.888654E-01  -28.974796  4.027231E-05    8.835601  1.000000E+00    0.000000  1.000000E+00    0.000000
  0.102463750  9.892523E-01  -29.156536  3.173200E-05  -23.978329  1.000000E+00    0.000000  1.000000E+00    0.000000
  0.103163500  9.888469E-01  -29.299049  6.004104E-05    5.621327  1.000000E+00    0.000000  1.000000E+00    0.000000
  0.103863250  9.890692E-01  -29.513180  4.443694E-05  -43.376823  1.000000E+00    0.000000  1.000000E+00    0.000000
  0.104563000  9.888336E-01  -29.700590  5.352190E-05  -53.377712  1.000000E+00    0.000000  1.000000E+00    0.000000
  0.105262750  9.891136E-01  -29.910494  4.177920E-05    6.266098  1.000000E+00    0.000000  1.000000E+00    0.000000
  0.105962500  9.882348E-01  -30.077999  3.119921E-05  -45.284386  1.000000E+00    0.000000  1.000000E+00    0.000000
  0.106662250  9.880264E-01  -30.222748  1.091352E-05    4.348639  1.000000E+00    0.000000  1.000000E+00    0.000000
  0.107362000  9.885541E-01  -30.453255  1.542178E-05   -8.037267  1.000000E+00    0.000000  1.000000E+00    0.000000
  0.108061750  9.878495E-01  -30.641970  2.561753E-05   -6.172921  1.000000E+00    0.000000  1.000000E+00    0.000000
  0.108761500  9.881161E-01  -30.777130  1.847673E-05  -15.477184  1.000000E+00    0.000000  1.000000E+00    0.000000
  0.109461250  9.878033E-01  -30.988138  4.384460E-05   20.489250  1.000000E+00    0.000000  1.000000E+00    0.000000
