! Anritsu VNA Master:                           Model: MS2025B
! SN:                                  1642059
! /bd0/PROE/TP1/P2/TLineRL.s2p
! Existing Calibration Information:
! TYPE:                         Current Settings,       Active Cal Settings
! TIME:             	   04/23/2024 09:14:03 AM,    03/12/2018 11:45:53 AM
! INTERNAL TEMP:    	                   43.5 C,                    40.8 C
! # POINTS:         	                     1715,                      4001
! START FREQ:       	                1.000 MHz,                 1.000 MHz
! STOP FREQ:        	        1.200 371 500 GHz,                 2.800 GHz
! SOURCE POWER:     	                  Default,                   Default
! IFBW:             	                    1 kHz,                     1 kHz
! AVG FACTOR:       	                       1 ,                        1 
! REF PLANE 1:      	                     0 mm,                      0 mm
! REF PLANE 2:      	                     0 mm,                      0 mm
! CAL TYPE:         	             1P2P S11,S21,              1P2P S11,S21
! CAL METHOD:       	                     SOLT,                      SOLT
! CAL LINE TYPE:    	                     Coax,                      Coax
! DUT PORT 1:       	                         ,                          
! DUT PORT 2:       	                N-Conn(M),                 N-Conn(M)
! CAL STATUS:       	        OK: Accuracy High,                        --
# GHZ S MA R 50.0
! FREQ.GHZ       S11M         S11A         S21M         S21A         S12M         S12A         S22M         S22A
  0.001000000  3.430505E-01 -179.597351  4.842020E-05  -88.951790  1.000000E+00    0.000000  1.000000E+00    0.000000
  0.001699750  3.445272E-01  179.941498  5.457027E-05  -82.315536  1.000000E+00    0.000000  1.000000E+00    0.000000
  0.002399500  3.446910E-01  179.430328  5.610939E-05  -76.557938  1.000000E+00    0.000000  1.000000E+00    0.000000
  0.003099250  3.439136E-01  179.046432  2.013712E-05   15.463149  1.000000E+00    0.000000  1.000000E+00    0.000000
  0.003799000  3.447713E-01  178.770889  5.246413E-05  -49.564213  1.000000E+00    0.000000  1.000000E+00    0.000000
  0.004498750  3.435946E-01  178.469543  3.682698E-05  -19.459572  1.000000E+00    0.000000  1.000000E+00    0.000000
  0.005198500  3.426993E-01  178.425858  4.919554E-05  -43.504208  1.000000E+00    0.000000  1.000000E+00    0.000000
  0.005898250  3.432633E-01  178.132751  5.487095E-05  -29.179157  1.000000E+00    0.000000  1.000000E+00    0.000000
  0.006598000  3.426103E-01  178.031128  5.285775E-05  -36.988071  1.000000E+00    0.000000  1.000000E+00    0.000000
  0.007297750  3.419051E-01  177.726547  2.887070E-05   25.574434  1.000000E+00    0.000000  1.000000E+00    0.000000
  0.007997500  3.415221E-01  177.634109  2.461769E-05   -6.428486  1.000000E+00    0.000000  1.000000E+00    0.000000
  0.008697250  3.423174E-01  177.407333  1.579621E-05   97.333389  1.000000E+00    0.000000  1.000000E+00    0.000000
  0.009397000  3.421570E-01  177.205078  1.845896E-05 -111.629562  1.000000E+00    0.000000  1.000000E+00    0.000000
  0.010096750  3.424111E-01  176.940414  9.401796E-05  -32.068417  1.000000E+00    0.000000  1.000000E+00    0.000000
  0.010796500  3.430004E-01  176.849533  6.014221E-06  123.312141  1.000000E+00    0.000000  1.000000E+00    0.000000
  0.011496250  3.433319E-01  176.686783  1.955975E-05   -6.626062  1.000000E+00    0.000000  1.000000E+00    0.000000
  0.012196000  3.427471E-01  176.473312  3.196102E-05  -20.849329  1.000000E+00    0.000000  1.000000E+00    0.000000
  0.012895750  3.426846E-01  176.286209  5.387542E-05  -61.916588  1.000000E+00    0.000000  1.000000E+00    0.000000
  0.013595500  3.430032E-01  176.102676  1.068525E-05  -54.311176  1.000000E+00    0.000000  1.000000E+00    0.000000
  0.014295250  3.426602E-01  175.892441  4.439519E-05  -29.432056  1.000000E+00    0.000000  1.000000E+00    0.000000
  0.014995000  3.435652E-01  175.755692  2.670842E-05  -27.851299  1.000000E+00    0.000000  1.000000E+00    0.000000
  0.015694750  3.432065E-01  175.569595  7.250635E-05   10.131625  1.000000E+00    0.000000  1.000000E+00    0.000000
  0.016394500  3.429069E-01  175.355713  4.122774E-05  -40.920437  1.000000E+00    0.000000  1.000000E+00    0.000000
  0.017094250  3.429792E-01  175.231430  3.175771E-05   37.911457  1.000000E+00    0.000000  1.000000E+00    0.000000
  0.017794000  3.433906E-01  174.986710  3.697883E-05  -43.109627  1.000000E+00    0.000000  1.000000E+00    0.000000
  0.018493750  3.433225E-01  174.780655  4.640548E-05  -18.626888  1.000000E+00    0.000000  1.000000E+00    0.000000
  0.019193500  3.432945E-01  174.675018  3.916721E-05   -0.229283  1.000000E+00    0.000000  1.000000E+00    0.000000
  0.019893250  3.436628E-01  174.369919  1.617807E-05    7.596164  1.000000E+00    0.000000  1.000000E+00    0.000000
  0.020593000  3.439753E-01  174.310852  2.858017E-05    4.767274  1.000000E+00    0.000000  1.000000E+00    0.000000
  0.021292750  3.433233E-01  174.105484  4.300650E-05   10.020956  1.000000E+00    0.000000  1.000000E+00    0.000000
  0.021992500  3.439195E-01  173.917007  2.807056E-05  -65.809334  1.000000E+00    0.000000  1.000000E+00    0.000000
  0.022692250  3.442864E-01  173.693558  2.333857E-05    4.028827  1.000000E+00    0.000000  1.000000E+00    0.000000
  0.023392000  3.436531E-01  173.581451  4.944411E-05    6.365273  1.000000E+00    0.000000  1.000000E+00    0.000000
  0.024091750  3.440325E-01  173.391937  2.895150E-05   10.523928  1.000000E+00    0.000000  1.000000E+00    0.000000
  0.024791500  3.442007E-01  173.162964  4.612777E-05   10.510565  1.000000E+00    0.000000  1.000000E+00    0.000000
  0.025491250  3.461733E-01  173.313934  5.991812E-05  -18.759142  1.000000E+00    0.000000  1.000000E+00    0.000000
  0.026191000  3.463554E-01  172.947617  5.851367E-05   -9.075873  1.000000E+00    0.000000  1.000000E+00    0.000000
  0.026890750  3.458574E-01  172.794525  3.814097E-05   27.558035  1.000000E+00    0.000000  1.000000E+00    0.000000
  0.027590500  3.462394E-01  172.595276  2.290178E-05   40.400326  1.000000E+00    0.000000  1.000000E+00    0.000000
  0.028290250  3.462442E-01  172.406693  2.618957E-05   59.785259  1.000000E+00    0.000000  1.000000E+00    0.000000
  0.028990000  3.459341E-01  172.166519  5.359393E-05   22.224165  1.000000E+00    0.000000  1.000000E+00    0.000000
  0.029689750  3.458379E-01  172.034378  5.396491E-05   29.655661  1.000000E+00    0.000000  1.000000E+00    0.000000
  0.030389500  3.454610E-01  171.779007  6.801805E-05   26.339436  1.000000E+00    0.000000  1.000000E+00    0.000000
  0.031089250  3.451232E-01  171.585403  2.206656E-05   63.369827  1.000000E+00    0.000000  1.000000E+00    0.000000
  0.031789000  3.449884E-01  171.405014  4.939799E-05   30.458040  1.000000E+00    0.000000  1.000000E+00    0.000000
  0.032488750  3.450715E-01  171.208176  5.906912E-05   20.604170  1.000000E+00    0.000000  1.000000E+00    0.000000
  0.033188500  3.447133E-01  171.057266  2.833892E-05    1.944497  1.000000E+00    0.000000  1.000000E+00    0.000000
  0.033888250  3.444609E-01  170.891113  1.808009E-05   95.289230  1.000000E+00    0.000000  1.000000E+00    0.000000
  0.034588000  3.443861E-01  170.745010  5.776323E-05   36.682487  1.000000E+00    0.000000  1.000000E+00    0.000000
  0.035287750  3.445119E-01  170.554474  4.742870E-05   48.038666  1.000000E+00    0.000000  1.000000E+00    0.000000
  0.035987500  3.446393E-01  170.387070  5.009692E-05   21.259537  1.000000E+00    0.000000  1.000000E+00    0.000000
  0.036687250  3.446542E-01  170.215668  2.038937E-05  111.993202  1.000000E+00    0.000000  1.000000E+00    0.000000
  0.037387000  3.442227E-01  170.000778  6.903340E-05   81.252426  1.000000E+00    0.000000  1.000000E+00    0.000000
  0.038086750  3.439302E-01  169.909119  5.845438E-05   75.872368  1.000000E+00    0.000000  1.000000E+00    0.000000
  0.038786500  3.435441E-01  169.708496  4.211446E-05  100.445724  1.000000E+00    0.000000  1.000000E+00    0.000000
  0.039486250  3.436209E-01  169.480865  9.453710E-05   61.713718  1.000000E+00    0.000000  1.000000E+00    0.000000
  0.040186000  3.437871E-01  169.357925  6.708613E-05   77.086411  1.000000E+00    0.000000  1.000000E+00    0.000000
  0.040885750  3.437584E-01  169.217361  4.235595E-05   66.592598  1.000000E+00    0.000000  1.000000E+00    0.000000
  0.041585500  3.433555E-01  168.985916  6.043637E-05   71.758270  1.000000E+00    0.000000  1.000000E+00    0.000000
  0.042285250  3.434844E-01  168.883774  1.229788E-05   80.221207  1.000000E+00    0.000000  1.000000E+00    0.000000
  0.042985000  3.432044E-01  168.666580  3.620421E-05  115.851685  1.000000E+00    0.000000  1.000000E+00    0.000000
  0.043684750  3.429073E-01  168.532425  4.333974E-05  118.773933  1.000000E+00    0.000000  1.000000E+00    0.000000
  0.044384500  3.429845E-01  168.325378  4.771355E-05  101.398903  1.000000E+00    0.000000  1.000000E+00    0.000000
  0.045084250  3.428667E-01  168.151031  4.822496E-05  112.422745  1.000000E+00    0.000000  1.000000E+00    0.000000
  0.045784000  3.430353E-01  167.958176  6.089312E-05  113.096390  1.000000E+00    0.000000  1.000000E+00    0.000000
  0.046483750  3.429474E-01  167.780029  1.182281E-05   84.707298  1.000000E+00    0.000000  1.000000E+00    0.000000
  0.047183500  3.428801E-01  167.576294  3.672000E-05   93.620735  1.000000E+00    0.000000  1.000000E+00    0.000000
  0.047883250  3.424197E-01  167.384583  3.865676E-05  134.497131  1.000000E+00    0.000000  1.000000E+00    0.000000
  0.048583000  3.429888E-01  167.236771  4.161728E-05  135.154297  1.000000E+00    0.000000  1.000000E+00    0.000000
  0.049282750  3.426512E-01  167.087219  1.802583E-05  131.333511  1.000000E+00    0.000000  1.000000E+00    0.000000
  0.049982500  3.450888E-01  167.134186  6.102649E-05  131.306274  1.000000E+00    0.000000  1.000000E+00    0.000000
  0.050682250  3.449032E-01  166.963623  1.024771E-04  108.878189  1.000000E+00    0.000000  1.000000E+00    0.000000
  0.051382000  3.452266E-01  166.625046  1.062516E-04  120.554420  1.000000E+00    0.000000  1.000000E+00    0.000000
  0.052081750  3.453008E-01  166.472931  7.900857E-05  118.155197  1.000000E+00    0.000000  1.000000E+00    0.000000
  0.052781500  3.449554E-01  166.272629  4.857029E-05  164.405762  1.000000E+00    0.000000  1.000000E+00    0.000000
  0.053481250  3.442258E-01  166.093338  4.601855E-05  122.783813  1.000000E+00    0.000000  1.000000E+00    0.000000
  0.054181000  3.443155E-01  165.866562  5.590297E-05  101.045433  1.000000E+00    0.000000  1.000000E+00    0.000000
  0.054880750  3.444446E-01  165.705231  4.304296E-05  120.383804  1.000000E+00    0.000000  1.000000E+00    0.000000
  0.055580500  3.442600E-01  165.530258  3.829783E-05  121.985611  1.000000E+00    0.000000  1.000000E+00    0.000000
  0.056280250  3.441420E-01  165.341705  6.358128E-05  179.572021  1.000000E+00    0.000000  1.000000E+00    0.000000
  0.056980000  3.439974E-01  165.119522  4.176206E-05  139.004135  1.000000E+00    0.000000  1.000000E+00    0.000000
  0.057679750  3.437440E-01  164.915710  6.201213E-05  173.506485  1.000000E+00    0.000000  1.000000E+00    0.000000
  0.058379500  3.436062E-01  164.696243  2.492303E-05  160.067413  1.000000E+00    0.000000  1.000000E+00    0.000000
  0.059079250  3.429858E-01  164.470901  2.907981E-05  158.880234  1.000000E+00    0.000000  1.000000E+00    0.000000
  0.059779000  3.430191E-01  164.364502  4.483303E-05  177.970337  1.000000E+00    0.000000  1.000000E+00    0.000000
  0.060478750  3.433785E-01  164.181641  6.830697E-05  177.495102  1.000000E+00    0.000000  1.000000E+00    0.000000
  0.061178500  3.429531E-01  163.966293  7.758188E-05 -149.023880  1.000000E+00    0.000000  1.000000E+00    0.000000
  0.061878250  3.429044E-01  163.765961  7.650265E-05  174.735931  1.000000E+00    0.000000  1.000000E+00    0.000000
  0.062578000  3.422342E-01  163.586334  9.653490E-05 -162.500259  1.000000E+00    0.000000  1.000000E+00    0.000000
  0.063277750  3.421297E-01  163.415497  3.596565E-05  149.237183  1.000000E+00    0.000000  1.000000E+00    0.000000
  0.063977500  3.422167E-01  163.209442  3.095565E-05  175.173752  1.000000E+00    0.000000  1.000000E+00    0.000000
  0.064677250  3.417978E-01  163.075348  5.288441E-05  173.412842  1.000000E+00    0.000000  1.000000E+00    0.000000
  0.065377000  3.417735E-01  162.847229  8.173372E-05 -168.929169  1.000000E+00    0.000000  1.000000E+00    0.000000
  0.066076750  3.414079E-01  162.661179  5.706535E-05 -157.921417  1.000000E+00    0.000000  1.000000E+00    0.000000
  0.066776500  3.412845E-01  162.454971  6.310002E-05  143.119781  1.000000E+00    0.000000  1.000000E+00    0.000000
  0.067476250  3.408155E-01  162.269150  6.482459E-05 -149.391571  1.000000E+00    0.000000  1.000000E+00    0.000000
  0.068176000  3.407742E-01  162.173523  4.371343E-05  162.803589  1.000000E+00    0.000000  1.000000E+00    0.000000
  0.068875750  3.407120E-01  161.896667  2.016361E-05  178.749069  1.000000E+00    0.000000  1.000000E+00    0.000000
  0.069575500  3.406863E-01  161.734161  4.348225E-05 -162.579239  1.000000E+00    0.000000  1.000000E+00    0.000000
  0.070275250  3.407473E-01  161.506500  5.932107E-05 -171.725250  1.000000E+00    0.000000  1.000000E+00    0.000000
  0.070975000  3.401088E-01  161.302368  7.125119E-05 -150.473907  1.000000E+00    0.000000  1.000000E+00    0.000000
  0.071674750  3.404773E-01  161.098679  9.146186E-05 -162.750229  1.000000E+00    0.000000  1.000000E+00    0.000000
  0.072374500  3.400491E-01  160.863464  6.325424E-05 -170.362457  1.000000E+00    0.000000  1.000000E+00    0.000000
  0.073074250  3.398326E-01  160.680450  9.608893E-05 -144.779022  1.000000E+00    0.000000  1.000000E+00    0.000000
  0.073774000  3.397008E-01  160.529785  3.791546E-05 -153.886871  1.000000E+00    0.000000  1.000000E+00    0.000000
  0.074473750  3.397574E-01  160.265717  4.486772E-05 -119.859192  1.000000E+00    0.000000  1.000000E+00    0.000000
  0.075173500  3.393578E-01  160.090027  4.724105E-05 -118.381683  1.000000E+00    0.000000  1.000000E+00    0.000000
  0.075873250  3.392870E-01  159.882599  2.889455E-05  -98.848007  1.000000E+00    0.000000  1.000000E+00    0.000000
  0.076573000  3.392208E-01  159.680328  4.552402E-05 -138.292679  1.000000E+00    0.000000  1.000000E+00    0.000000
  0.077272750  3.392594E-01  159.397583  2.110942E-05 -150.239197  1.000000E+00    0.000000  1.000000E+00    0.000000
  0.077972500  3.390549E-01  159.283813  3.256272E-05  -99.067436  1.000000E+00    0.000000  1.000000E+00    0.000000
  0.078672250  3.390102E-01  159.077347  2.037211E-05  -75.883415  1.000000E+00    0.000000  1.000000E+00    0.000000
  0.079372000  3.387874E-01  158.808136  5.479425E-05  -94.029449  1.000000E+00    0.000000  1.000000E+00    0.000000
  0.080071750  3.385289E-01  158.659317  4.173827E-05  -87.310722  1.000000E+00    0.000000  1.000000E+00    0.000000
  0.080771500  3.388754E-01  158.427872  5.177949E-05  -81.863045  1.000000E+00    0.000000  1.000000E+00    0.000000
  0.081471250  3.382767E-01  158.216797  6.854365E-05  -98.301773  1.000000E+00    0.000000  1.000000E+00    0.000000
  0.082171000  3.384805E-01  158.048553  5.366879E-05  -77.694191  1.000000E+00    0.000000  1.000000E+00    0.000000
  0.082870750  3.386777E-01  157.756729  5.472215E-05  -82.780418  1.000000E+00    0.000000  1.000000E+00    0.000000
  0.083570500  3.383795E-01  157.574066  7.416328E-05  -75.293777  1.000000E+00    0.000000  1.000000E+00    0.000000
  0.084270250  3.381176E-01  157.359619  3.494156E-05 -115.771133  1.000000E+00    0.000000  1.000000E+00    0.000000
  0.084970000  3.382287E-01  157.091156  4.872573E-05  -78.508575  1.000000E+00    0.000000  1.000000E+00    0.000000
  0.085669750  3.383769E-01  156.846390  5.082133E-05 -103.046967  1.000000E+00    0.000000  1.000000E+00    0.000000
  0.086369500  3.381258E-01  156.657028  5.659913E-05  -77.016663  1.000000E+00    0.000000  1.000000E+00    0.000000
  0.087069250  3.384031E-01  156.461395  5.843166E-05  -81.313362  1.000000E+00    0.000000  1.000000E+00    0.000000
  0.087769000  3.383480E-01  156.270264  5.772100E-05  -63.039417  1.000000E+00    0.000000  1.000000E+00    0.000000
  0.088468750  3.382316E-01  156.073441  3.948106E-05  -50.292706  1.000000E+00    0.000000  1.000000E+00    0.000000
  0.089168500  3.378355E-01  155.795639  6.159813E-05  -68.542969  1.000000E+00    0.000000  1.000000E+00    0.000000
  0.089868250  3.381693E-01  155.587585  4.832208E-05  -59.543209  1.000000E+00    0.000000  1.000000E+00    0.000000
  0.090568000  3.378952E-01  155.459717  6.519908E-05  -62.633156  1.000000E+00    0.000000  1.000000E+00    0.000000
  0.091267750  3.383835E-01  155.151627  5.183950E-05  -78.472290  1.000000E+00    0.000000  1.000000E+00    0.000000
  0.091967500  3.383306E-01  154.977707  4.727223E-05  -57.435097  1.000000E+00    0.000000  1.000000E+00    0.000000
  0.092667250  3.383157E-01  154.745483  4.995170E-05  -36.316841  1.000000E+00    0.000000  1.000000E+00    0.000000
  0.093367000  3.382691E-01  154.548157  5.815166E-05  -38.450844  1.000000E+00    0.000000  1.000000E+00    0.000000
  0.094066750  3.385816E-01  154.334732  5.511588E-05  -80.359283  1.000000E+00    0.000000  1.000000E+00    0.000000
  0.094766500  3.384005E-01  154.141190  3.080087E-05  -41.064636  1.000000E+00    0.000000  1.000000E+00    0.000000
  0.095466250  3.387265E-01  153.824829  3.010609E-05  -43.486973  1.000000E+00    0.000000  1.000000E+00    0.000000
  0.096166000  3.386228E-01  153.673004  6.003977E-05  -45.312698  1.000000E+00    0.000000  1.000000E+00    0.000000
  0.096865750  3.386011E-01  153.442520  3.775335E-05  -77.985077  1.000000E+00    0.000000  1.000000E+00    0.000000
  0.097565500  3.383825E-01  153.294632  5.102774E-05  -47.259735  1.000000E+00    0.000000  1.000000E+00    0.000000
  0.098265250  3.390102E-01  153.030426  4.986876E-05  -36.275246  1.000000E+00    0.000000  1.000000E+00    0.000000
  0.098965000  3.389693E-01  152.880402  2.100032E-05  -48.807224  1.000000E+00    0.000000  1.000000E+00    0.000000
  0.099664750  3.388844E-01  152.681396  5.207807E-05  -63.684895  1.000000E+00    0.000000  1.000000E+00    0.000000
  0.100364500  3.399810E-01  152.449020  3.316555E-05   11.975104  1.000000E+00    0.000000  1.000000E+00    0.000000
  0.101064250  3.399781E-01  152.266510  4.310004E-05  -44.407219  1.000000E+00    0.000000  1.000000E+00    0.000000
  0.101764000  3.401567E-01  152.096832  5.849202E-05  -22.264053  1.000000E+00    0.000000  1.000000E+00    0.000000
  0.102463750  3.403934E-01  151.918182  3.619634E-05  -63.731346  1.000000E+00    0.000000  1.000000E+00    0.000000
  0.103163500  3.399221E-01  151.713974  3.453734E-05   -2.333529  1.000000E+00    0.000000  1.000000E+00    0.000000
  0.103863250  3.402607E-01  151.569977  4.678157E-05   16.167683  1.000000E+00    0.000000  1.000000E+00    0.000000
  0.104563000  3.404678E-01  151.362076  4.135120E-05  -40.553310  1.000000E+00    0.000000  1.000000E+00    0.000000
  0.105262750  3.407107E-01  151.179398  2.235299E-05  -38.595158  1.000000E+00    0.000000  1.000000E+00    0.000000
  0.105962500  3.406394E-01  150.936569  3.069787E-05   35.829109  1.000000E+00    0.000000  1.000000E+00    0.000000
  0.106662250  3.406137E-01  150.807846  5.107081E-05  -14.646626  1.000000E+00    0.000000  1.000000E+00    0.000000
  0.107362000  3.411306E-01  150.569000  3.983653E-05  -30.193729  1.000000E+00    0.000000  1.000000E+00    0.000000
  0.108061750  3.409961E-01  150.378784  3.185406E-05  -18.363224  1.000000E+00    0.000000  1.000000E+00    0.000000
  0.108761500  3.409647E-01  150.307922  3.853613E-05    4.560897  1.000000E+00    0.000000  1.000000E+00    0.000000
  0.109461250  3.408985E-01  150.054565  4.981567E-05  -16.986061  1.000000E+00    0.000000  1.000000E+00    0.000000
